(1.360546) van0 282#74F8E1072054F324
(1.360778) van0 2F1#0192CA004B001000
(1.361065) van0 2C1#0300640D00EC0200
(1.361353) van0 132#4B87F3FFF426FF0F
(1.361641) van0 266#0000012000003D01
(1.361929) van0 201#CB00001900633000
(1.362217) van0 379#0420561500000000
(1.362505) van0 232#8A00A30EC4040000
(1.374597) van0 266#0000012000003D01
(1.374855) van0 381#21B2808067303030
(1.375143) van0 118#4107851C00800000
(1.375432) van0 257#BE441F0002000000
(1.375719) van0 221#610505000000C04E
(1.376007) van0 39A#FFFEFEFEFE000001
(1.376295) van0 211#A612710F00010000
(1.376583) van0 122#00001212D2000000
(1.387981) van0 3DA#0000000000000000
(1.388259) van0 1D8#210000000000403A
(1.388550) van0 23E#F4013AC0FAFCAFD4
(1.388835) van0 1D5#210000000000A097
(1.389123) van0 129#542E0260FF1FFF3F
(1.389411) van0 3A3#14C0000008000000
(1.389699) van0 2C1#78E71D12913F0000
(1.389987) van0 132#4E87F3FFF526FF0F
(1.401426) van0 266#0000012000003D01
(1.401673) van0 7D5#2B00B0FD00000000
(1.401961) van0 16#0100000000000000
(1.402250) van0 7D5#320E020000000000
(1.402547) van0 118#440A851C00800000
(1.402825) van0 2E5#0000010B0000DD00
(1.403114) van0 272#0500C30000000000
(1.403401) van0 772#0500000000000000
(1.414540) van0 1D8#210000000000A09A
(1.414815) van0 2E1#02000000FF000200
(1.415103) van0 207#0200000000000000
(1.415391) van0 129#3E2102600020FF3F
(1.415679) van0 1D5#21000000000000F7
(1.415968) van0 3C3#5555550000550000
(1.416255) van0 409#0000000000000000
(1.416543) van0 2E2#0000279184070000
(1.427577) van0 788#01000000FFA10800
(1.427847) van0 201#C90000FF07FF3000
(1.428136) van0 132#5387F2FFF426FF0F
(1.428423) van0 266#0000012000003D01
(1.428711) van0 16#0100000000000000
(1.429000) van0 118#470D851C00800000
(1.429287) van0 257#C1471F0002000000
(1.429575) van0 118#480E851C00800000
(1.440683) van0 263#00C139F426BCD500
(1.440963) van0 287#62606161B5020000
(1.441255) van0 2E5#0000010B0000DD00
(1.441539) van0 39A#FFFEFEFEFE000001
(1.441827) van0 6C8#0100000000000000
(1.442116) van0 1FB#F0FFFFFFFFFFFFFF
(1.442403) van0 1D8#21000000000000FA
(1.442691) van0 1FA#1AC0010000000000
(1.453968) van0 1D5#2100000000008077
(1.454211) van0 129#F12502600020FF3F
(1.454499) van0 285#02BA00000000E300
(1.454787) van0 428#2000101000000000
(1.455075) van0 282#74F8E1071C54F324
(1.455371) van0 2F1#0212CD004B806E7F
(1.455652) van0 2C1#0300640D00EC0200
(1.455939) van0 3A2#0040F357150BCA67
(1.467511) van0 228#010B0418402AB06C
(1.467747) van0 360#0700000000000000
(1.468035) van0 201#CB00001900633000
(1.468323) van0 379#03207E80A171F100
(1.468611) van0 132#5487F2FFF426FF0F
(1.468899) van0 266#0000012000003D01
(1.469187) van0 16#0100000000000000
(1.469485) van0 118#3C02851C00800000
(1.480626) van0 421#0000000004000000
(1.480873) van0 2E5#0000010B0000DD00
(1.481161) van0 2E8#010000000080B01B
(1.481452) van0 123#00001212D2000000
(1.481737) van0 2E1#10210430D0500000
(1.482025) van0 211#A713710F00010000
(1.482314) van0 122#00001212D2000000
(1.482601) van0 1FB#01FEFFB76D0B0000
(1.493919) van0 268#2B014401BC000000
(1.494181) van0 1D8#210000000000A09A
(1.494471) van0 77D#1100000000000000
(1.494757) van0 1D5#21000000000000F7
(1.495045) van0 129#BE2902600020FF3F
(1.495334) van0 3E3#0500000000000000
(1.495621) van0 3E2#050040A16F0F0000
(1.495909) van0 229#4600000000000000
(1.505911) van0 77A#0100185D605D305D
(1.506183) van0 285#035B924879000000
(1.506471) van0 263#01BD3CF527BAD504
(1.506759) van0 204#0100000000000010
(1.507047) van0 54F#0000000000000000
(1.507346) van0 264#2C000000A0000000
(1.507623) van0 224#4408000013011008
(1.507911) van0 16#0100000000000000
(1.518854) van0 118#4006851C00800000
(1.519071) van0 2E5#0000010B0000DD00
(1.519359) van0 221#605555155451F1D8
(1.519654) van0 383#7300460000000000
(1.519936) van0 3C8#0500000000000000
(1.520223) van0 393#0500C30000000000
(1.520511) van0 1D8#21000000000000FA
(1.520799) van0 2E1#03DE99021B1F5F01
(1.521087) van0 1D8#210000000000201A
(1.534283) van0 1D5#2100000000008077
(1.534563) van0 129#E22D02600020FF3F
(1.534852) van0 288#014B0418802AC05C
(1.535139) van0 545#88006190ABC62A5E
(1.535427) van0 281#0000FF1F00000000
(1.535716) van0 2C1#02AB835100C20300
(1.536003) van0 201#B20B00011660F301
(1.536291) van0 381#2307DDC2C5E52400
(1.547826) van0 132#4F87F2FFF426FF0F
(1.548101) van0 266#0000012000003D01
(1.548387) van0 16#0100000000000000
(1.548675) van0 118#4309851C00800000
(1.548963) van0 257#C74D1F0002000000
(1.549252) van0 2A8#010000000080C0EB
(1.549539) van0 282#74F8E1071C54F324
(1.549827) van0 2F1#0312C7004B000200
(1.560940) van0 2C1#0300640D00EC0200
(1.561225) van0 132#4E87F3FFF526FF0F
(1.561514) van0 266#0000012000003D01
(1.561801) van0 7A8#CE1E00F000000000
(1.562089) van0 16#0100000000000000
(1.562380) van0 2E5#0000010B0000DD00
(1.562665) van0 221#610505000000008E
(1.562953) van0 3C0#0700000000000000
(1.574054) van0 656#0B001C4701000000
(1.574307) van0 656#0D00000061BD9F6C
(1.574595) van0 656#10017CA74894FF00
(1.574884) van0 656#1100000000000000
(1.575171) van0 656#121648B47A6641FD
(1.575460) van0 393#1000362211600708
(1.575747) van0 656#1303000000000000
(1.576035) van0 41D#0000000000000000
(1.587168) van0 21D#0400040000000000
(1.587433) van0 3A1#884CE4C50058A21B
(1.587721) van0 43D#00000000FF000000
(1.588009) van0 545#0319643219003045
(1.588297) van0 27D#0000000000000000
(1.588585) van0 448#2000101000000000
(1.588881) van0 29D#0000000000000000
(1.589161) van0 7D5#320E020000000000
(1.600197) van0 118#480E851C00800000
(1.600483) van0 2E5#0000010B0000DD00
(1.600776) van0 272#0500C30000000000
(1.601057) van0 2B3#035B5BEB013D0100
(1.601345) van0 335#0A010D32FC000500
(1.601633) van0 335#0B001C4600000000
(1.601921) van0 4E3#031C020000000800
(1.602209) van0 398#0000000000000000
(1.613826) van0 36B#0000000000000000
(1.614111) van0 36E#0000000000000000
(1.614399) van0 3A4#0100000000000000
(1.614687) van0 3A5#0000000000000000
(1.614975) van0 3B5#0000000000000000
(1.615263) van0 207#0200000000000000
(1.615551) van0 3C5#0000000000000000
(1.615839) van0 227#000000002F000080
(1.627883) van0 247#770DFF0000000000
(1.628163) van0 2E2#010000C9C0020000
(1.628454) van0 788#5C05228404000000
(1.628739) van0 201#C90000FF07FF3000
(1.629027) van0 266#0000012000003D01
(1.629316) van0 132#5187F1FFF026FF0F
(1.629603) van0 16#0100000000000000
(1.629891) van0 132#4D87F1FFF426FF0F
(1.641010) van0 243#F5001B23E6E60200
(1.641289) van0 266#0000012000003D01
(1.641578) van0 118#3C02851C00800000
(1.641865) van0 287#62606161B5020000
(1.642153) van0 2E5#0000010B0000DD00
(1.642441) van0 263#00C139F426BCD500
(1.642729) van0 748#241D060000000000
(1.643017) van0 39A#929173B1FFFEFE0C
(1.654455) van0 473#3000000000000000
(1.654721) van0 119#0000000000000000
(1.655007) van0 1D8#210000000000A09A
(1.655295) van0 1FA#1AC0010000000000
(1.655583) van0 1D5#21000000000000F7
(1.655871) van0 129#BE2902600020FF3F
(1.656159) van0 428#2000101000000000
(1.656447) van0 283#4D54000040000000
(1.666883) van0 3A2#00A0725A4581CA67
(1.667103) van0 228#010B0418602AD0AC
(1.667391) van0 360#0100000000000000
(1.667679) van0 201#CB00001900633000
(1.667968) van0 2E1#FD1FCBFAAAC50A00
(1.668263) van0 132#4387F2FFF326FF0F
(1.668543) van0 266#0000012000003D01
(1.668831) van0 118#4006851C00800000
(1.669119) van0 2E5#0000010B0000DD00
(1.682311) van0 421#0000000004000000
(1.682595) van0 2E8#010000000080D03B
(1.682884) van0 39A#FFFEFEFEFE000001
(1.683171) van0 211#A915710F00010000
(1.683460) van0 122#00001212D2000000
(1.683747) van0 3DA#0000000000000000
(1.684035) van0 268#2B014401BC000000
(1.684323) van0 1D8#210000000000201A
(1.695340) van0 43D#00000000FF000000
(1.695615) van0 7DD#FF00000000000000
(1.695903) van0 1D5#2100000000008077
(1.696191) van0 129#E22D02600020FF3F
(1.696479) van0 3E3#0500000000000000
(1.696768) van0 3E2#050040A16F0F0000
(1.697055) van0 2C4#350001041000FF00
(1.697343) van0 54F#0000000000000000
(1.707771) van0 204#0100000000000010
(1.707999) van0 7AA#0503000C7009D404
(1.708287) van0 264#2C000000A0000000
(1.708575) van0 224#4408000013011008
(1.708863) van0 2B4#82E5241D01000000
(1.709151) van0 282#893534342002400F
(1.709439) van0 132#4A87F3FFF426FF0F
(1.709727) van0 266#0000012000003D01
(1.710015) van0 16#0100000000000000
(1.722168) van0 118#440A851C00800000
(1.722399) van0 2E1#02000000FF000200
(1.722697) van0 221#6055551554513118
(1.722975) van0 383#7300460000000000
(1.723263) van0 3C8#0100000000000000
(1.723551) van0 393#0500C30000000000
(1.723839) van0 1D5#21000000000000F7
(1.724127) van0 129#0D2101600020FF3F
(1.724415) van0 288#014B0418A02AE09C
(1.737599) van0 2E1#03DE99021B1F5F01
(1.737857) van0 545#880061A0ABCF6AB7
(1.738145) van0 281#0000FF1F00000000
(1.738441) van0 2C1#02AB835100C20300
(1.738721) van0 1F9#0000000000000000
(1.739009) van0 201#B20B00011660F301
(1.739297) van0 132#4F87F2FFF326FF0F
(1.739585) van0 266#0000012000003D01
(1.750540) van0 16#0100000000000000
(1.750817) van0 118#470D851C00800000
(1.751106) van0 2A8#010000000080E00B
(1.751399) van0 257#C1471F0002000000
(1.751681) van0 2E5#0000010B0000DD00
(1.751970) van0 118#480E851C00800000
(1.752259) van0 2E5#0000010B0000DD00
(1.752545) van0 1A5#B302000000000000
(1.763226) van0 7A8#01000000FFA10800
(1.763489) van0 225#55557A0000000000
(1.763777) van0 396#0132323F3724137D
(1.764065) van0 186#8F08000000000000
(1.764353) van0 398#0000000000000000
(1.764652) van0 1D8#21000000000000FA
(1.764929) van0 3C2#0055555500005A05
(1.765217) van0 263#0200000278253200
(1.776426) van0 1D5#2100000000008077
(1.776709) van0 129#F12502600020FF3F
(1.777008) van0 102#22330000B622A109
(1.777285) van0 103#2233000090F42032
(1.777573) van0 139#0000000000000000
(1.777862) van0 2C1#04A57B000000408E
(1.778149) van0 266#0000012000003D01
(1.778437) van0 1F8#1A00000000000000
(1.789197) van0 266#0000012000003D01
(1.789443) van0 16#0100000000000000
(1.789731) van0 118#3B01851C00800000
(1.790020) van0 20C#0010360AFC003000
(1.790307) van0 257#C3491F0002000000
(1.790595) van0 2BD#0000000000000000
(1.790884) van0 2E5#0000010B0000DD00
(1.791171) van0 1D8#210000000000807A
(1.801883) van0 2F3#0BEB632400000000
(1.802116) van0 4E2#E501A6C101030000
(1.802403) van0 38A#0300000000000000
(1.802691) van0 2E1#396D000000926B03
(1.802979) van0 1D5#210000000000E0D7
(1.803267) van0 129#EB2802600020FF3F
(1.803558) van0 2E3#9492618511060000
(1.803843) van0 1D5#21000000000000F7
(1.815168) van0 129#BE2902600020FF3F
(1.815423) van0 3C3#5555550000550000
(1.815711) van0 3A2#4D44000000000000
(1.815999) van0 559#0000000000000000
(1.816287) van0 528#5E431A9A00000000
(1.816575) van0 3ED#0000000000000000
(1.816873) van0 405#100000000035594A
(1.817151) van0 788#D61E003000000000
(1.827683) van0 201#C90000FF07FF3000
(1.827914) van0 132#5187F3FFF526FF0F
(1.828210) van0 266#0000012000003D01
(1.828489) van0 118#3F05851C00800000
(1.828778) van0 2E5#0000010B0000DD00
(1.829065) van0 257#C54B1F0002000000
(1.829353) van0 2C3#5503A80680C11200
(1.829641) van0 263#00C139F426BCD500
(1.829929) van0 6C8#0100000000000000
(1.843111) van0 1FB#F0FFFFFFFFFFFFFF
(1.843359) van0 1D8#21000000000000FA
(1.843647) van0 340#0100000000000000
(1.843936) van0 1D5#2100000000006057
(1.844223) van0 129#F02C02600020FF3F
(1.844511) van0 439#000020000000E102
(1.844799) van0 1FA#1AC0010000000000
(1.845087) van0 1D5#2100000000008077
(1.856397) van0 129#E22D02600020FF3F
(1.856679) van0 2E1#C412000003030000
(1.856969) van0 428#2000101000000000
(1.857255) van0 319#0B03010001000000
(1.857543) van0 282#7CF8E1071C54F324
(1.857835) van0 2F1#0612C9004B000100
(1.858119) van0 360#0300000000000000
(1.858415) van0 201#CB00001900633000
(1.869946) van0 379#0760B7EEA8010102
(1.870215) van0 132#5287F0FFF326FF0F
(1.870503) van0 266#0000012000003D01
(1.870791) van0 16#0100000000000000
(1.871079) van0 2E5#0000010B0000DD00
(1.871369) van0 118#4309851C00800000
(1.871655) van0 118#440A851C00800000
(1.871943) van0 132#4E87F0FFF226FF0F
(1.883405) van0 421#0000000004000000
(1.883679) van0 2E8#010000000080F05B
(1.883968) van0 123#00001212D2000000
(1.884255) van0 211#AB17710F00010000
(1.884543) van0 122#00001212D2000000
(1.884831) van0 3DA#0000000000000000
(1.885119) van0 1D8#210000000000807A
(1.885407) van0 1D5#21000000000000F7
(1.896695) van0 129#57210260FF1FFF3F
(1.896927) van0 3E3#0500000000000000
(1.897215) van0 3E2#050040A16F0F0000
(1.897503) van0 359#1400000000000000
(1.897791) van0 2C1#78E71D12913F0000
(1.898079) van0 132#4687EFFFED26FF0F
(1.898368) van0 266#0000012000003D01
(1.898655) van0 282#893534340809400F
(1.909797) van0 201#80071E0040240300
(1.910081) van0 263#01BD3CF527BAD504
(1.910370) van0 381#27FFBFFDFDBF2400
(1.910657) van0 266#0000012000003D01
(1.910945) van0 118#470D851C00800000
(1.911236) van0 132#4F87EFFFF026FF0F
(1.911521) van0 252#DE20A27E0000A10F
(1.911809) van0 39A#FFFEFEFEFE000001
(1.923511) van0 393#0500C30000000000
(1.923783) van0 1D8#21000000000000FA
(1.924081) van0 261#C11A1102FA7F5AFF
(1.924359) van0 2E1#02000000FF000200
(1.924647) van0 2C2#555BA90680C11200
(1.924936) van0 3C2#2955000000000000
(1.925223) van0 3F9#0300000000000000
(1.925511) van0 129#F12502600020FF3F
(1.937226) van0 288#014B0418602A007C
(1.937475) van0 545#86015DE0ABC8AA2B
(1.937763) van0 281#0000FF1F00000000
(1.938052) van0 287#62606161B5020000
(1.938339) van0 2C1#02AB835100C20300
(1.938627) van0 1F9#0000000000000000
(1.938916) van0 22A#0000A91500000000
(1.939203) van0 201#B20B00011660F301
(1.949826) van0 266#0000012000003D01
(1.950113) van0 16#0100000000000000
(1.950401) van0 118#3B01851C00800000
(1.950689) van0 257#BB411F0002000000
(1.950977) van0 2A8#010000000080002B
(1.951265) van0 2E5#0000010B0000DD00
(1.951553) van0 272#1000384211600708
(1.951841) van0 242#55D5000000000000
(1.962426) van0 398#0000000000000000
(1.962697) van0 1D8#210000000000807A
(1.962985) van0 1D5#210000000000E0D7
(1.963273) van0 129#EB2802600020FF3F
(1.963561) van0 283#4E54000040000000
(1.963853) van0 3F5#0036365850154001
(1.964137) van0 3A2#00A072537501CA67
(1.964425) van0 129#BE2902600020FF3F
(1.975891) van0 102#22330000B622A109
(1.976127) van0 139#0000000000000000
(1.976415) van0 263#0200000278253200
(1.976703) van0 2C1#04A57B000000408E
(1.976991) van0 132#5187EFFFF026FF0F
(1.977279) van0 266#0000012000003D01
(1.977568) van0 16#0100000000000000
(1.977855) van0 132#4D87F0FFEF26FF0F
(1.988407) van0 266#0000012000003D01
(1.988677) van0 16#0100000000000000
(1.988976) van0 118#3F05851C00800000
(1.989253) van0 1D6#0000080028000000
(1.989541) van0 257#BD431F0002000000
(1.989830) van0 279#CC1F000000000000
(1.990117) van0 2E5#0000010B0000DD00
(1.990405) van0 1D8#21000000000000FA
(2.000740) van0 2D3#3D012300D0DE7135
(2.001011) van0 4E2#016D060100000800
(2.001289) van0 38A#0100000000000000
(2.001578) van0 285#035B924879000000
(2.001865) van0 1D5#2100000000006057
(2.002153) van0 129#F02C02600020FF3F
(2.002441) van0 76A#00A94AAA02000000
(2.002729) van0 1D5#2100000000008077
(2.014455) van0 129#E22D02600020FF3F
(2.014719) van0 3C3#5555550000550000
(2.015007) van0 3A2#4944000000000000
(2.015295) van0 113#0197010000000000
(2.015583) van0 7FF#0331096961220012
(2.015873) van0 318#14021A150B141D9C
(2.016159) van0 458#0202008000000000
(2.016447) van0 788#01000000FFA10800
(2.027568) van0 201#C90000FF07FF3000
(2.027845) van0 132#4E87EFFFEF26FF0F
(2.028134) van0 266#0000012000003D01
(2.028421) van0 16#0100000000000000
(2.028709) van0 118#4309851C00800000
(2.028998) van0 2E5#0000010B0000DD00
(2.029285) van0 257#BF451F0002000000
(2.029573) van0 2E5#0000010B0000DD00
(2.040683) van0 39A#FFFEFEFEFE000001
(2.040927) van0 6C8#0100000000000000
(2.041215) van0 1FB#F0FFFFFFFFFFFFFF
(2.041503) van0 263#00C139F426BCD500
(2.041791) van0 1D8#210000000000807A
(2.042079) van0 2E1#03DE99021B1F5F01
(2.042368) van0 340#0300000000000000
(2.042655) van0 3E8#0000000000000000
(2.054397) van0 119#0000000000000000
(2.054657) van0 1FA#1AC0010000000000
(2.054945) van0 1D5#21000000000000F7
(2.055233) van0 129#3E2102600020FF3F
(2.055525) van0 428#2000101000000000
(2.055809) van0 282#74F8E1072054F324
(2.056103) van0 2F1#080200B004380128
(2.056385) van0 3A2#0060F255C504CA67
(2.066997) van0 228#010B0418402A10CC
(2.067241) van0 405#113345374542344B
(2.067529) van0 360#0500000000000000
(2.067817) van0 201#CB00001900633000
(2.068105) van0 379#05A08C3240000102
(2.068396) van0 132#4587EFFFED26FF0F
(2.068682) van0 266#0000012000003D01
(2.068969) van0 16#0100000000000000
(2.080111) van0 118#480E851C00800000
(2.080383) van0 2E5#0000010B0000DD00
(2.080671) van0 2E8#010000000080107B
(2.080959) van0 123#00001212D2000000
(2.081247) van0 211#AD19710F00010000
(2.081536) van0 122#00001212D2000000
(2.081823) van0 3DA#0000000000000000
(2.082111) van0 108#150B000000010000
(2.093484) van0 1FB#01FEFFB76D0B0000
(2.093737) van0 1D8#210000000000201A
(2.094025) van0 77D#1100000000000000
(2.094314) van0 268#2B014401BC000000
(2.094601) van0 2E1#10210430D0500000
(2.094889) van0 1D5#2100000000008077
(2.095178) van0 129#F12502600020FF3F
(2.095467) van0 7AA#01880D870D000000
(2.106511) van0 204#0100000000000010
(2.106785) van0 2C4#014000D200000000
(2.107073) van0 264#2C000000A0000000
(2.107361) van0 224#4408000013011008
(2.107649) van0 212#B9044B8D00001E74
(2.107948) van0 252#DE20A27E0000A10F
(2.108225) van0 292#795DE5175F0A0300
(2.108513) van0 132#5287EFFFEF26FF0F
(2.120060) van0 266#0000012000003D01
(2.120321) van0 118#3C02851C00800000
(2.120609) van0 2E5#0000010B0000DD00
(2.120897) van0 221#605555155451B198
(2.121190) van0 383#7300460000000000
(2.121477) van0 3C8#0500000000000000
(2.121761) van0 393#0500C30000000000
(2.122049) van0 39A#908F73B1FFFEFE0C
(2.134111) van0 1D8#210000000000A09A
(2.134346) van0 1D5#21000000000000F7
(2.134633) van0 129#BE2902600020FF3F
(2.134921) van0 288#014B0418802A20BC
(2.135209) van0 545#90016660ACD4EA0B
(2.135497) van0 287#62606161B5020000
(2.135785) van0 281#0000FF1F00000000
(2.136073) van0 129#612A02600020FF3F
(2.147672) van0 439#000020000000E102
(2.147941) van0 201#B20B00011660F301
(2.148233) van0 132#4B87EFFFEE26FF0F
(2.148517) van0 266#0000012000003D01
(2.148805) van0 16#0100000000000000
(2.149093) van0 2A8#010000000080204B
(2.149381) van0 118#3F05851C00800000
(2.149669) van0 282#74F8E1072054F324
(2.160768) van0 2F1#0902000000780028
(2.161023) van0 2C1#0300640D00EC0200
(2.161311) van0 266#0000012000003D01
(2.161599) van0 16#0100000000000000
(2.161887) van0 118#4006851C00800000
(2.162177) van0 1A5#B302000000000000
(2.162463) van0 195#0000080028000000
(2.162751) van0 2D1#FF01000000000000
(2.172683) van0 393#1000362211600708
(2.172937) van0 1D8#210000000000201A
(2.173225) van0 6E8#AC11005601000000
(2.173514) van0 3C2#0055555500005A05
(2.173801) van0 1D5#2100000000008077
(2.174092) van0 129#E22D02600020FF3F
(2.174378) van0 102#22330000B624A109
(2.174665) van0 31E#0100000000000000
(2.186397) van0 3A1#884CE2C500580279
(2.186655) van0 21D#0400040000000000
(2.186947) van0 41D#0000000000000000
(2.187231) van0 545#031964321900F005
(2.187519) van0 25D#472805CC40A102C0
(2.187817) van0 27D#0000000000000000
(2.188095) van0 448#2000101000000000
(2.188383) van0 16#0100000000000000
(2.198740) van0 2E5#0000010B0000DD00
(2.198979) van0 7D5#320E020000000000
(2.199267) van0 272#0500C30000000000
(2.199555) van0 4E3#031C020000000800
(2.199843) van0 3B3#0800040000000000
(2.200131) van0 1D8#210000000000807A
(2.200420) van0 4E2#031A000500000800
(2.200707) van0 2E1#396D000000926B03
(2.212111) van0 1D8#210000000000A09A
(2.212393) van0 409#0000000000000000
(2.212683) van0 1D5#21000000000000F7
(2.212969) van0 129#3E2102600020FF3F
(2.213257) van0 3C3#5555550000550000
(2.213546) van0 3A2#4744000000000000
(2.213833) van0 113#0197010000000000
(2.214121) van0 3C2#2955000000000000
(2.224711) van0 3F9#0200000000000000
(2.224959) van0 1D5#2100000000002017
(2.225247) van0 129#772202600020FF3F
(2.225536) van0 423#0000100000000000
(2.225823) van0 247#780DFF0000000000
(2.226113) van0 227#000000002F000080
(2.226399) van0 2E2#010000C9C0020000
(2.226687) van0 2C1#02AB835100C20300
(2.238262) van0 1F9#0000000000000000
(2.238495) van0 22A#0000A91500000000
(2.238783) van0 132#4E87F0FFEE26FF0F
(2.239071) van0 243#F5001921E6E60200
(2.239359) van0 266#0000012000003D01
(2.239647) van0 16#0100000000000000
(2.239936) van0 118#480E851C00800000
(2.240223) van0 241#52A4B014295C0000
(2.250350) van0 39A#908F73B1FFFEFE0C
(2.250591) van0 3E8#0200000000000000
(2.250879) van0 119#0000000000000000
(2.251168) van0 333#04100B0600000000
(2.251456) van0 1D8#210000000000201A
(2.251743) van0 334#3F3FFFC80002C03E
(2.252031) van0 1FA#1AC0010000000000
(2.252319) van0 1D5#210000000000A097
(2.262768) van0 129#862602600120FF3F
(2.263047) van0 3F5#0036365850154001
(2.263339) van0 283#4F54000040000000
(2.263623) van0 3A2#0080F252F58ACA67
(2.263911) van0 228#010B0418402A30EC
(2.264200) van0 360#0700000000000000
(2.264487) van0 201#CB00001900633000
(2.264775) van0 2C1#04A57B000000408E
(2.276311) van0 266#0000012000003D01
(2.276583) van0 16#0100000000000000
(2.276871) van0 118#3C02851C00800000
(2.277169) van0 132#4F87F2FFF726FF0F
(2.277447) van0 421#0000000004000000
(2.277739) van0 2E5#0000010B0000DD00
(2.278023) van0 2E8#010000000080309B
(2.278311) van0 1F8#1A00000000000000
(2.288997) van0 257#BC421F0002000000
(2.289255) van0 20C#0010360AFC003000
(2.289543) van0 2BD#0000000000000000
(2.289832) van0 2E5#0000010B0000DD00
(2.290119) van0 37A#0100000004000000
(2.290407) van0 108#160D000000000000
(2.290695) van0 2B6#0007000000000000
(2.290983) van0 3BB#490F000000000000
(2.301254) van0 33A#5E005E00F5001F1F
(2.301507) van0 1D8#210000000000C0BA
(2.301795) van0 4E2#0400000000000000
(2.302084) van0 23E#F4013AC0FAFC1F44
(2.302371) van0 38A#0100000000000000
(2.302659) van0 76A#00A3CAA802000000
(2.302947) van0 1D5#2100000000002017
(2.303235) van0 2E1#396D000000926B03
(2.314968) van0 1D5#2100000000004037
(2.315209) van0 129#902B02600020FF3F
(2.315497) van0 3C3#5555550000550000
(2.315785) van0 3A2#4744000000000000
(2.316073) van0 405#1246333135383039
(2.316361) van0 113#0197010000000000
(2.316654) van0 7FF#0331096961220012
(2.316937) van0 788#01000000FFA10800
(2.328168) van0 201#C90000FF07FF3000
(2.328423) van0 132#4F87F2FFF526FF0F
(2.328711) van0 266#0000012000003D01
(2.329000) van0 16#0100000000000000
(2.329287) van0 118#4107851C00800000
(2.329578) van0 257#BE441F0002000000
(2.329864) van0 2C3#0000000101004040
(2.330151) van0 39A#FFFEFEFEFE000001
(2.341291) van0 6C8#A011005701000000
(2.341549) van0 1FB#F0FFFFFFFFFFFFFF
(2.341827) van0 1D8#210000000000403A
(2.342116) van0 23E#F4013AC0FAFC2F54
(2.342403) van0 340#0600000000000000
(2.342691) van0 1D5#210000000000A097
(2.342979) van0 129#3D2E02600020FF3F
(2.343267) van0 1D8#210000000000605A
(2.354997) van0 1FA#1AC0010000000000
(2.355242) van0 1D5#210000000000C0B7
(2.355529) van0 129#CC2F02600020FF3F
(2.355817) van0 428#2000101000000000
(2.356105) van0 282#74F8E1072054F324
(2.356393) van0 2F1#2B05000113002828
(2.356682) van0 2C1#0300640D00EC0200
(2.356969) van0 360#0000000000000000
(2.368126) van0 201#CB00001900633000
(2.368383) van0 379#00006880A1C1E900
(2.368671) van0 132#5487F3FFF826FF0F
(2.368959) van0 232#8A00AA0EC4040000
(2.369247) van0 266#0000012000003D01
(2.369536) van0 2E5#0000010B0000DD00
(2.369823) van0 16#0100000000000000
(2.370111) van0 2E5#0000010B0000DD00
(2.381568) van0 372#0012C040511FFC44
(2.381825) van0 2E8#01000000008040AB
(2.382113) van0 123#00001212D2000000
(2.382401) van0 211#B01C710F00010000
(2.382689) van0 122#00001212D2000000
(2.382979) van0 2E1#FD1FC52AABC90A00
(2.383265) van0 3DA#0000000000000000
(2.383553) van0 77D#1100000000000000
(2.394511) van0 7DD#FF00000000000000
(2.394785) van0 1D5#2100000000004037
(2.395073) van0 129#602302600020FF3F
(2.395361) van0 3E3#0500000000000000
(2.395649) van0 3E2#050040A16F0F0000
(2.395938) van0 359#1900000000000000
(2.396225) van0 2C1#78E71D12913F0000
(2.396513) van0 2C4#040000000020C949
(2.407132) van0 54F#0000000000000000
(2.407369) van0 224#4408000013011008
(2.407657) van0 2B4#82E5243301000000
(2.407947) van0 282#893534346402400F
(2.408233) van0 201#68A71D0044240300
(2.408521) van0 266#0000012000003D01
(2.408809) van0 16#0100000000000000
(2.409097) van0 221#60555515545111F8
(2.419968) van0 383#7300460000000000
(2.420223) van0 3C8#0200000000000000
(2.420511) van0 393#0500C30000000000
(2.420799) van0 1D8#210000000000403A
(2.421087) van0 261#C21A1102FA7FC200
(2.421375) van0 23E#F4013AC0FAFC4F74
(2.421663) van0 2C2#0000000101004040
(2.421951) van0 2E1#02000000FF000200
(2.433683) van0 1D5#210000000000C0B7
(2.433953) van0 288#014B0418A02A500C
(2.434241) van0 129#3C2702600020FF3F
(2.434529) van0 287#62606161B5020000
(2.434817) van0 545#88006640ACD14A3F
(2.435118) van0 281#0000FF1F00000000
(2.435393) van0 2C1#02AB835100C20300
(2.435691) van0 201#B20B00011660F301
(2.447226) van0 381#12A7F4F738004464
(2.447489) van0 132#5387F1FFF326FF0F
(2.447777) van0 266#0000012000003D01
(2.448065) van0 2A8#010000000080507B
(2.448353) van0 16#0100000000000000
(2.448641) van0 118#3D03851C00800000
(2.448929) van0 2E5#0000010B0000DD00
(2.449217) van0 132#5587F2FFF326FF0F
(2.460340) van0 266#0000012000003D01
(2.460619) van0 372#014B5B0190024403
(2.460903) van0 2E5#0000010B0000DD00
(2.461191) van0 118#3E04851C00800000
(2.461479) van0 1A5#B302000000000000
(2.461768) van0 225#55557A0000000000
(2.462055) van0 3E9#F13000000000D0DD
(2.462343) van0 2D1#FF01000000000000
(2.472683) van0 393#1000382211600708
(2.472927) van0 1D8#210000000000E0DA
(2.473215) van0 6E8#0100000000000000
(2.473503) van0 3C2#0055555500005A05
(2.473791) van0 1D5#2100000000004037
(2.474079) van0 129#902B02600020FF3F
(2.474368) van0 102#22330000B624A109
(2.474655) van0 3A3#12C0000008000000
(2.486140) van0 33D#1A290ABE874AFA98
(2.486403) van0 3A1#884CE3C5005C32AE
(2.486691) van0 37D#4C4BD0074CD00700
(2.486979) van0 41D#0000000000000000
(2.487267) van0 43D#00000000FF000000
(2.487568) van0 21D#0400040000000000
(2.487843) van0 448#2000101000000000
(2.488131) van0 266#0000012000003D01
(2.498826) van0 7D5#2B00B0FD00000000
(2.499075) van0 2E5#0000010B0000DD00
(2.499363) van0 118#4208851C00800000
(2.499652) van0 7D5#320E020000000000
(2.499939) van0 272#0500C30000000000
(2.500227) van0 4E3#0059010000000800
(2.500516) van0 2E1#10210430D0500000
(2.500803) van0 343#0090500EAA550100
(2.512540) van0 1D8#210000000000605A
(2.512778) van0 409#0000000000000000
(2.513065) van0 1D5#210000000000C0B7
(2.513353) van0 129#CC2F02600020FF3F
(2.513641) van0 3C3#5555550000550000
(2.513929) van0 3A2#4744000000000000
(2.514217) van0 113#0197010000000000
(2.514505) van0 3C2#2955000000000000
(2.525140) van0 3F9#0100000000000000
(2.525415) van0 1D5#210000000000E0D7
(2.525703) van0 129#292002600020FF3F
(2.525991) van0 423#0000100000000000
(2.526279) van0 247#770DFF0000000000
(2.526568) van0 227#000000002F000080
(2.526855) van0 788#5C05228404000000
(2.527143) van0 2C1#02AB835100C20300
(2.538691) van0 1F9#0000000000000000
(2.538951) van0 22A#0000A91500000000
(2.539239) van0 132#4D87F3FFF726FF0F
(2.539527) van0 243#F500191FE6E60200
(2.539815) van0 266#0000012000003D01
(2.540107) van0 16#0100000000000000
(2.540391) van0 2E5#0000010B0000DD00
(2.540679) van0 241#52A4B014295C0000
(2.550768) van0 39A#908F73B1FFFEFE0C
(2.551047) van0 3E8#0500000000000000
(2.551345) van0 119#0000000000000000
(2.551623) van0 2E1#03DE99021B1F5F01
(2.551911) van0 1D8#210000000000E0DA
(2.552200) van0 293#020C550065047FE0
(2.552487) van0 253#6499ABC8992D0100
(2.552775) van0 1D5#2100000000006057
(2.563883) van0 129#E62402600020FF3F
(2.564163) van0 3F5#0036365850154001
(2.564454) van0 283#5054000040000000
(2.564739) van0 3A2#0020F35B4581CA67
(2.565027) van0 228#010B0418602A603C
(2.565316) van0 405#100000000035594A
(2.565603) van0 360#0200000000000000
(2.565891) van0 357#0000000000000000
(2.577426) van0 35A#0000000000000000
(2.577699) van0 35B#0000000000000000
(2.577987) van0 2C1#04A57B000000408E
(2.578275) van0 263#0200000278253200
(2.578563) van0 266#0000012000003D01
(2.578862) van0 16#0100000000000000
(2.579139) van0 118#3A00851C00800000
(2.579427) van0 20C#0010360AFC003000
(2.590465) van0 257#BB411F0002000000
(2.590719) van0 2B3#035B5BEB013D0100
(2.591007) van0 2BD#0000000000000000
(2.591295) van0 301#0DEC4D7126000000
(2.591583) van0 303#1303000000000000
(2.591873) van0 37A#0100000004000000
(2.592159) van0 1FB#01FEFFB76D0B0000
(2.592447) van0 335#14050000107E8667
(2.603826) van0 335#1F00000000000000
(2.604073) van0 213#4055000000000000
(2.604361) van0 3D5#4544464346950243
(2.604651) van0 82#0000008000800080
(2.604937) van0 315#4A3F4C5040A07D03
(2.605225) van0 38A#0100000000000000
(2.605514) van0 4E2#016D06FF0F000800
(2.605801) van0 3C3#5555550000550000
(2.616946) van0 3E5#0000000000000000
(2.617215) van0 76A#00A28AA802000000
(2.617503) van0 113#0197010000000000
(2.617791) van0 78A#010003000000D85D
(2.618079) van0 7AA#04000FC000260000
(2.618368) van0 422#7000100000000000
(2.618660) van0 2F9#0CD9DFFCF305FF00
(2.618943) van0 266#0000012000003D01
(2.630397) van0 118#3F05851C00800000
(2.630657) van0 257#BD431F0002000000
(2.630945) van0 2E5#0000010B0000DD00
(2.631233) van0 2C3#5503A80680C11200
(2.631521) van0 339#5FF1FE0080038003
(2.631809) van0 1D8#210000000000E0DA
(2.632097) van0 316#0A015A32FC000900
(2.632385) van0 6C8#0100000000000000
(2.644111) van0 1D8#21000000000000FA
(2.644393) van0 340#0100000000000000
(2.644682) van0 1D5#2100000000006057
(2.644969) van0 129#F02C02600020FF3F
(2.645257) van0 263#00C139F426BCD500
(2.645549) van0 439#000020000000E102
(2.645833) van0 201#BA0B00011660F301
(2.646121) van0 428#2000101000000000
(2.657667) van0 282#7CF8E1072054F324
(2.657929) van0 2F1#2E0680258400B004
(2.658217) van0 2C1#0300640D00EC0200
(2.658505) van0 132#4D87F2FFF526FF0F
(2.658794) van0 266#0000012000003D01
(2.659083) van0 7A8#01000000FFA10800
(2.659369) van0 16#0100000000000000
(2.659657) van0 379#0720BCEEAD010102
(2.670768) van0 132#4E87F3FFF526FF0F
(2.671011) van0 266#0000012000003D01
(2.671299) van0 2E5#0000010B0000DD00
(2.671587) van0 118#4309851C00800000
(2.671875) van0 257#BF451F0002000000
(2.672163) van0 221#61050500000060EE
(2.672454) van0 3C0#0200000000000000
(2.672739) van0 122#00001212D2000000
(2.684311) van0 3DA#0000000000000000
(2.684547) van0 1D8#210000000000807A
(2.684835) van0 1D5#210000000000E0D7
(2.685123) van0 129#292002600020FF3F
(2.685411) van0 3A3#12C0000008000000
(2.685699) van0 75D#0892AC6CACB7AC02
(2.685987) van0 3A1#884CE0C5005852C7
(2.686275) van0 3E2#050040A16F0F0000
(2.697683) van0 359#1C00000000000000
(2.697961) van0 2C1#78E71D12913F0000
(2.698251) van0 132#5187F3FFF726FF0F
(2.698537) van0 266#0000012000003D01
(2.698825) van0 372#040081FF5FD182FF
(2.699117) van0 16#0100000000000000
(2.699401) van0 2E5#0000010B0000DD00
(2.699689) van0 132#5387F2FFF526FF0F
(2.710797) van0 212#B9044B8D00001E74
(2.711043) van0 252#DE20A27E0000A10F
(2.711331) van0 257#C1471F0002000000
(2.711620) van0 262#0B00BAE300300000
(2.711907) van0 292#795DE5175F0A0300
(2.712195) van0 2D2#215E6E9DFE08E828
(2.712484) van0 2E5#0000010B0000DD00
(2.712771) van0 2E1#396D000000926B03
(2.724340) van0 393#0500C30000000000
(2.724579) van0 261#BE1A1102FA7FA4FF
(2.724867) van0 2C2#555BA90680C11200
(2.725155) van0 3C2#2955000000000000
(2.725443) van0 3F9#0300000000000000
(2.725731) van0 1D5#2100000000006057
(2.726020) van0 129#E62402600020FF3F
(2.726307) van0 545#88006690ABC6AAE3
(2.738054) van0 281#0000FF1F00000000
(2.738341) van0 2C1#02AB835100C20300
(2.738630) van0 1F9#0000000000000000
(2.738917) van0 22A#0000A91500000000
(2.739205) van0 132#4F87F3FFF426FF0F
(2.739493) van0 243#F500181FE6E60200
(2.739781) van0 266#0000012000003D01
(2.740069) van0 257#C3491F0002000000
(2.750654) van0 2A8#01000000008080AB
(2.750919) van0 2E5#0000010B0000DD00
(2.751207) van0 272#10003C6211600708
(2.751495) van0 241#52A4B014295C0000
(2.751783) van0 3E8#0100000000000000
(2.752074) van0 119#0000000000000000
(2.752359) van0 1D8#210000000000605A
(2.752647) van0 1D8#210000000000807A
(2.763768) van0 1D5#210000000000E0D7
(2.764035) van0 129#D82801600020FF3F
(2.764323) van0 3F5#0036365850154001
(2.764611) van0 283#5054000040000000
(2.764901) van0 3A2#000073504501CA67
(2.765187) van0 228#010B0418402A803C
(2.765475) van0 360#0400000000000000
(2.765770) van0 2C1#04A57B000000408E
(2.777311) van0 132#4F87F3FFF226FF0F
(2.777571) van0 266#0000012000003D01
(2.777859) van0 16#0100000000000000
(2.778147) van0 118#3E04851C00800000
(2.778435) van0 263#0200000278253200
(2.778723) van0 2E5#0000010B0000DD00
(2.779011) van0 372#0501D4FF18CAD5FF
(2.779299) van0 126#B706000000000000
(2.789997) van0 1D6#0000080028000000
(2.790243) van0 118#3F05851C00800000
(2.790531) van0 257#C54B1F0002000000
(2.790820) van0 279#CC1F000000000000
(2.791107) van0 2E1#FD1FBE0AABC10A00
(2.791395) van0 2E5#0000010B0000DD00
(2.791684) van0 37A#0000000000000000
(2.791971) van0 2F3#0BEB632400000000
(2.802683) van0 1D8#21000000000000FA
(2.802916) van0 4E2#031A000000000800
(2.803203) van0 38A#0000000000000000
(2.803491) van0 1D5#2100000000006057
(2.803779) van0 78A#0100050000006206
(2.804070) van0 129#F02C02600020FF3F
(2.804355) van0 2E3#9492618615060000
(2.804643) van0 3C3#5555550000550000
(2.816140) van0 3A2#4944000000000000
(2.816417) van0 559#0000000000000000
(2.816706) van0 528#5E431A9B00000000
(2.816993) van0 3ED#0000000000000000
(2.817281) van0 405#113345374542344B
(2.817570) van0 422#7000100000000000
(2.817857) van0 2F9#0CD9DFFCF305FF00
(2.818145) van0 266#0000012000003D01
(2.828568) van0 118#4309851C00800000
(2.828835) van0 257#C74D1F0002000000
(2.829123) van0 2E5#0000010B0000DD00
(2.829411) van0 2C3#5503A80680C11200
(2.829699) van0 339#5BF1FE0080038003
(2.829987) van0 1D8#210000000000605A
(2.830275) van0 287#62606161B5020000
(2.830563) van0 6C8#0100000000000000
(2.842283) van0 1FB#F0FFFFFFFFFFFFFF
(2.842537) van0 1D8#210000000000807A
(2.842825) van0 340#0300000000000000
(2.843114) van0 1D5#210000000000E0D7
(2.843401) van0 129#40200260FF1FFF3F
(2.843689) van0 439#000020000000E102
(2.843978) van0 263#00C139F426BCD500
(2.844265) van0 1D5#21000000000000F7
(2.855997) van0 129#3E2102600020FF3F
(2.856255) van0 428#2000101000000000
(2.856543) van0 319#0D0000000DF29402
(2.856831) van0 282#7CF8E1072054F324
(2.857119) van0 2F1#108E03D814002828
(2.857416) van0 2C1#0300640D00EE0200
(2.857695) van0 132#4987F0FFEE26FF0F
(2.857983) van0 360#0500000000000000
(2.869546) van0 201#CB00001900633000
(2.869791) van0 266#0000012000003D01
(2.870079) van0 16#0100000000000000
(2.870368) van0 118#470D851C00800000
(2.870655) van0 132#5087EEFFEC26FF0F
(2.870943) van0 257#C94F1F0002000000
(2.871231) van0 2E5#0000010B0000DD00
(2.871519) van0 2E8#01000000008090FB
(2.882997) van0 123#00001212D2000000
(2.883267) van0 39A#FFFEFEFEFE000001
(2.883555) van0 211#A511710F00010000
(2.883843) van0 122#00001212D2000000
(2.884131) van0 3DA#0000000000000000
(2.884420) van0 1D8#21000000000000FA
(2.884707) van0 345#0D00000084DBF2D4
(2.884995) van0 1D5#2100000000008077
(2.896368) van0 129#F12502600020FF3F
(2.896647) van0 3E3#0500000000000000
(2.896936) van0 3E2#050040A16F0F0000
(2.897223) van0 359#1E00000000000000
(2.897511) van0 2C1#78E71D12913F0000
(2.897800) van0 266#0000012000003D01
(2.898087) van0 132#4E87F0FFF226FF0F
(2.898375) van0 224#4408000013011008
(2.909505) van0 282#893534349009400F
(2.909763) van0 201#80A71D0044240300
(2.910052) van0 266#0000012000003D01
(2.910347) van0 2B4#81E5246301000000
(2.910627) van0 16#0100000000000000
(2.910919) van0 118#3B01851C00800000
(2.911203) van0 132#5087EFFFED26FF0F
(2.911491) van0 393#0500C30000000000
(2.922340) van0 1D8#210000000000807A
(2.922601) van0 261#BF1A1102FA7F30FF
(2.922889) van0 2C2#555BA90680C11200
(2.923178) van0 3C2#2955000000000000
(2.923467) van0 3F9#0100000000000000
(2.923764) van0 1D5#210000000000E0D7
(2.924041) van0 129#EB2802600020FF3F
(2.924329) van0 287#62606161B5020000
(2.936054) van0 1D5#21000000000000F7
(2.936319) van0 129#BE2902600020FF3F
(2.936607) van0 545#90016600ACCEEAA5
(2.936895) van0 281#0000FF1F00000000
(2.937183) van0 2C1#02AB835100C20300
(2.937471) van0 1F9#0000000000000000
(2.937759) van0 22A#0000A91500000000
(2.938047) van0 201#B20B00011660F301
(2.948654) van0 132#4D87F0FFF026FF0F
(2.948931) van0 266#0000012000003D01
(2.949220) van0 16#0100000000000000
(2.949507) van0 2A8#010000000080A0CB
(2.949795) van0 118#3F05851C00800000
(2.950084) van0 257#BD431F0002000000
(2.950371) van0 2E5#0000010B0000DD00
(2.950659) van0 242#55D5000000000000
(2.961254) van0 186#8B04000000000000
(2.961541) van0 398#0000000000000000
(2.961830) van0 1D8#21000000000000FA
(2.962117) van0 1D5#2100000000006057
(2.962405) van0 129#F02C02600020FF3F
(2.962696) van0 3F5#0036365850154001
(2.962981) van0 283#5154000040000000
(2.963269) van0 3C2#0055555500005A05
(2.974711) van0 1D5#2100000000008077
(2.974983) van0 129#E22D02600020FF3F
(2.975271) van0 102#22330000B624A109
(2.975559) van0 103#2233000090F42032
(2.975847) van0 139#0000000000000000
(2.976136) van0 2E1#C412000003030000
(2.976423) van0 2C1#04A57B000000408E
(2.976711) van0 29D#0000000000000000
(2.987484) van0 545#031964321900F005
(2.987749) van0 201#CC00001900633000
(2.988037) van0 243#6083D860933E0A01
(2.988325) van0 132#4887EFFFEE26FF0F
(2.988613) van0 266#0000012000003D01
(2.988901) van0 16#0100000000000000
(2.989189) van0 118#4309851C00800000
(2.989477) van0 272#0500C30000000000
(3.000597) van0 39A#FFFEFEFEFE000001
(3.000833) van0 1D8#210000000000807A
(3.001119) van0 4E2#E501A6C101030000
(3.001407) van0 38A#0300000000000000
(3.001695) van0 2D3#3D012300D0DE7135
(3.001983) van0 1D5#210000000000E0D7
(3.002271) van0 77A#006817002C130000
(3.002559) van0 409#0000000000000000
(3.013711) van0 1D5#21000000000000F7
(3.013985) van0 129#3E2102600020FF3F
(3.014273) van0 3C3#5555550000550000
(3.014561) van0 3A2#4944000000000000
(3.014849) van0 113#0197010000000000
(3.015141) van0 7FF#0105544102041600
(3.015425) van0 318#14021B150B141191
(3.015713) van0 247#770DFF0000000000
(3.026911) van0 227#000000002F000080
(3.027146) van0 3C9#0700000000000000
(3.027433) van0 788#DA1E003000000000
(3.027721) van0 2E1#396D000000926B03
(3.028009) van0 201#C90000FF07FF3000
(3.028297) van0 132#4F87EFFFED26FF0F
(3.028595) van0 266#0000012000003D01
(3.028873) van0 243#F500171DE6E60200
(3.040626) van0 266#0000012000003D01
(3.040864) van0 118#480E851C00800000
(3.041151) van0 2E5#0000010B0000DD00
(3.041439) van0 320#0200000000000000
(3.041727) van0 6C8#0100000000000000
(3.042016) van0 1FB#F0FFFFFFFFFFFFFF
(3.042303) van0 1D8#21000000000000FA
(3.042591) van0 3E8#0400000000000000
(3.054348) van0 1D8#210000000000201A
(3.054627) van0 293#020C550065048FF0
(3.054916) van0 253#6499ABC8992D0100
(3.055203) van0 1FA#1AC0010000000000
(3.055491) van0 1D5#2100000000008077
(3.055779) van0 129#F12502600020FF3F
(3.056067) van0 428#2000101000000000
(3.056355) van0 3F5#0036365850154001
(3.067375) van0 283#5154000040000000
(3.067647) van0 3A2#00E072533D0BCA67
(3.067936) van0 228#010B0418602AB08C
(3.068223) van0 405#1246333135383039
(3.068511) van0 360#0700000000000000
(3.068801) van0 201#CB00001900633000
(3.069087) van0 266#0000012000003D01
(3.069375) van0 381#29FFBFFDFDBF2400
(3.080911) van0 266#0000012000003D01
(3.081183) van0 118#3C02851C00800000
(3.081471) van0 132#5587EFFFED26FF0F
(3.081759) van0 2E1#C412000003030000
(3.082047) van0 2E5#0000010B0000DD00
(3.082336) van0 2E8#010000000080B01B
(3.082623) van0 123#00001212D2000000
(3.082911) van0 1FB#01FEFFB76D0B0000
(3.094626) van0 1D8#210000000000A09A
(3.094913) van0 128#0000000000000000
(3.095201) van0 39A#8C8F71B3FFFEFE0C
(3.095489) van0 43D#00000000FF000000
(3.095787) van0 7DD#FF00000000000000
(3.096065) van0 1D5#21000000000000F7
(3.096353) van0 129#BE2902600020FF3F
(3.096641) van0 249#F702000000000000
(3.106711) van0 204#0100000000000010
(3.106981) van0 2C4#2B8000800A380100
(3.107269) van0 54F#0000000000000000
(3.107557) van0 224#4408000013011008
(3.107845) van0 2B4#81E5245701000000
(3.108134) van0 282#893534340000400F
(3.108421) van0 201#80A71D0040240300
(3.108709) van0 16#0100000000000000
(3.119575) van0 118#4006851C00800000
(3.119847) van0 2E5#0000010B0000DD00
(3.120136) van0 221#605555155451F1D8
(3.120423) van0 383#7300460000000000
(3.120711) van0 3C8#0300000000000000
(3.121003) van0 39A#FFFEFEFEFE000001
(3.121287) van0 393#0500C30000000000
(3.121575) van0 1D8#210000000000201A
(3.133626) van0 287#62606161B5020000
(3.133887) van0 1D5#2100000000008077
(3.134175) van0 288#014B0418802AC05C
(3.134463) van0 129#E22D02600020FF3F
(3.134751) van0 545#900161D0ABCA2AAB
(3.135039) van0 281#0000FF1F00000000
(3.135327) van0 2C1#02AB835100C20300
(3.135615) van0 2E1#02000000FF000200
(3.147168) van0 201#B20B00011660F301
(3.147423) van0 132#4F87F0FFF026FF0F
(3.147711) van0 266#0000012000003D01
(3.147999) van0 2A8#010000000080C0EB
(3.148287) van0 16#0100000000000000
(3.148575) van0 118#4309851C00800000
(3.148863) van0 257#C74D1F0002000000
(3.149151) van0 2C1#0300640D00EC0200
(3.160283) van0 132#5287F0FFF226FF0F
(3.160549) van0 266#0000012000003D01
(3.160837) van0 118#440A851C00800000
(3.161125) van0 2E5#0000010B0000DD00
(3.161413) van0 195#0000080028000000
(3.161701) van0 2F1#0112CB004B003200
(3.161989) van0 225#55557A0000000000
(3.162277) van0 2D1#FF01000000000000
(3.172797) van0 393#1000362211600708
(3.173055) van0 1D8#210000000000A09A
(3.173343) van0 6E8#AC11005601000000
(3.173631) van0 3C2#0055555500005A05
(3.173919) van0 1D5#21000000000000F7
(3.174209) van0 129#3E2102600020FF3F
(3.174495) van0 102#22330000B624A109
(3.174783) van0 3A3#14C0000008000000
(3.186254) van0 31E#0100000000000000
(3.186531) van0 3A1#884CE3C50058A21A
(3.186820) van0 21D#0400040000000000
(3.187107) van0 41D#0000000000000000
(3.187395) van0 545#0319643219003045
(3.187684) van0 25D#472805CC40A102C0
(3.187971) van0 27D#0000000000000000
(3.188259) van0 132#5187EFFFF026FF0F
(3.199368) van0 2C1#78E71D12913F0000
(3.199623) van0 118#480E851C00800000
(3.199911) van0 2E5#0000010B0000DD00
(3.200200) van0 7D5#2B00B0FD00000000
(3.200487) van0 7D5#320E020000000000
(3.200775) van0 4E3#0132050000000800
(3.201074) van0 1D8#21000000000000FA
(3.201351) van0 1D8#210000000000201A
(3.213083) van0 409#0000000000000000
(3.213316) van0 1D5#2100000000008077
(3.213603) van0 129#F12502600020FF3F
(3.213891) van0 2E1#10210430D0500000
(3.214179) van0 3C3#5555550000550000
(3.214467) van0 3A2#4744000000000000
(3.214755) van0 113#0197010000000000
(3.215043) van0 3C2#2955000000000000
(3.225683) van0 3F9#0000000000000000
(3.225953) van0 1D5#210000000000A097
(3.226241) van0 423#0000100000000000
(3.226529) van0 2E2#C028279184070000
(3.226817) van0 247#770DFF0000000000
(3.227109) van0 227#000000002F000080
(3.227393) van0 788#01000000FFA10800
(3.227681) van0 2C1#02AB835100C20300
(3.239226) van0 1F9#0000000000000000
(3.239489) van0 132#4D87F0FFF326FF0F
(3.239777) van0 22A#0000A91500000000
(3.240065) van0 243#F500171BE6E60200
(3.240353) van0 266#0000012000003D01
(3.240652) van0 118#3C02851C00800000
(3.240929) van0 2E5#0000010B0000DD00
(3.241217) van0 241#52A4B014295C0000
(3.251911) van0 3E8#0000000000000000
(3.252195) van0 119#0000000000000000
(3.252484) van0 1D8#210000000000A09A
(3.252771) van0 333#04100B0600000000
(3.253059) van0 334#3F3FFFC80002E05E
(3.253347) van0 1FA#1AC0010000000000
(3.253635) van0 1D5#21000000000000F7
(3.253934) van0 1D5#2100000000002017
(3.264340) van0 129#082A0260FF1FFF3F
(3.264579) van0 3F5#0036365850154001
(3.264877) van0 283#5254000040000000
(3.265155) van0 3A2#00E0724E7501CA67
(3.265443) van0 228#010B0418602AD0AC
(3.265731) van0 2E1#03DE99021B1F5F01
(3.266020) van0 360#0100000000000000
(3.266307) van0 2C1#04A57B000000408E
(3.277883) van0 132#4987EFFFED26FF0F
(3.278116) van0 266#0000012000003D01
(3.278403) van0 16#0100000000000000
(3.278691) van0 421#0000000004000000
(3.278979) van0 118#4006851C00800000
(3.279270) van0 2E5#0000010B0000DD00
(3.279555) van0 2E8#010000000080D03B
(3.279843) van0 2E5#0000010B0000DD00
(3.290911) van0 37A#0200000004000000
(3.291136) van0 395#01111D431B0E097D
(3.291423) van0 108#1107000000010000
(3.291711) van0 128#0000000000000000
(3.291999) van0 1FB#01FEFFB76D0B0000
(3.292287) van0 1D8#210000000000201A
(3.292575) van0 43D#00000000FF000000
(3.292863) van0 38A#0300000000000000
(3.293151) van0 4E2#02BD030000000800
(3.305654) van0 78A#010001000000060D
(3.305929) van0 1D5#210000000000A097
(3.306217) van0 7AA#3209D6F85B062100
(3.306505) van0 129#3D2E02600020FF3F
(3.306793) van0 2E3#8492618615060000
(3.307082) van0 229#5202000000000000
(3.307369) van0 3A2#4744000000000000
(3.307657) van0 405#100000000035594A
(3.318768) van0 113#0197010000000000
(3.319011) van0 7FF#0105544102041600
(3.319299) van0 318#14021B150B141797
(3.319598) van0 2E1#10210430D0500000
(3.319875) van0 2F9#0CD9DFFCF305FF00
(3.320163) van0 458#0202008000000000
(3.320454) van0 257#C0461F0002000000
(3.320739) van0 2E5#0000010B0000DD00
(3.331968) van0 363#1405010400000000
(3.332225) van0 2C3#0000000101004040
(3.332513) van0 339#59F1FE0080038003
(3.332801) van0 39A#8A8D71B3FFFEFE0C
(3.333091) van0 1D8#210000000000A09A
(3.333377) van0 287#62606161B5020000
(3.333665) van0 1D8#210000000000C0BA
(3.333953) van0 23E#F4013AC0FAFCBFE4
(3.345683) van0 340#0000000000000000
(3.345961) van0 1D5#2100000000002017
(3.346251) van0 129#772202600020FF3F
(3.346537) van0 439#000020000000E102
(3.346825) van0 201#BA0B00011660F301
(3.347114) van0 266#0000012000003D01
(3.347401) van0 16#0100000000000000
(3.347689) van0 282#74F8E1072054F324
(3.358797) van0 2C1#0300640D00EE0200
(3.359043) van0 132#4687F2FFF426FF0F
(3.359331) van0 266#0000012000003D01
(3.359620) van0 16#0100000000000000
(3.359907) van0 118#480E851C00800000
(3.360195) van0 25A#FCFFFFFF03000000
(3.360484) van0 2E5#0000010B0000DD00
(3.360771) van0 221#61050500000040CE
(3.371660) van0 379#02006880A1C1E900
(3.371941) van0 3C0#0100000000000000
(3.372230) van0 752#00F4F17FA40000DA
(3.372517) van0 2D1#FF01000000000000
(3.372805) van0 393#1000382211600708
(3.373093) van0 1D8#210000000000201A
(3.373381) van0 6E8#AC11005601000000
(3.373669) van0 1D5#210000000000A097
(3.385197) van0 129#2B2602600020FF3F
(3.385477) van0 2E1#C412000003030000
(3.385766) van0 3A3#12C0000008000000
(3.386053) van0 41D#0000000000000000
(3.386344) van0 21D#0400040000000000
(3.386630) van0 3A1#884CE3C5005CC23E
(3.386927) van0 43D#00000000FF000000
(3.387205) van0 2C1#78E71D12913F0000
(3.397883) van0 132#5187F2FFF226FF0F
(3.398149) van0 266#0000012000003D01
(3.398437) van0 7D5#2B00B0FD00000000
(3.398725) van0 16#0100000000000000
(3.399023) van0 2E5#0000010B0000DD00
(3.399301) van0 118#3C02851C00800000
(3.399589) van0 7D5#320E020000000000
(3.399877) van0 292#795DE5175F0A0300
(3.411005) van0 2D2#215E6E9DFE08E828
(3.411231) van0 2E5#0000010B0000DD00
(3.411519) van0 343#009058AEA9280000
(3.411807) van0 398#0000000000000000
(3.412095) van0 772#0700000000000000
(3.412383) van0 1D8#210000000000A09A
(3.412671) van0 1D5#21000000000000F7
(3.412959) van0 261#C71A1102FA7F1D01
(3.424626) van0 23E#F4013AC0FAFCDF04
(3.424873) van0 2C2#0000000101004040
(3.425161) van0 3C2#2955000000000000
(3.425452) van0 3F9#0200000000000000
(3.425737) van0 1D5#2100000000002017
(3.426025) van0 129#612A02600020FF3F
(3.426314) van0 423#0000100000000000
(3.426601) van0 281#0000FF1F00000000
(3.438003) van0 2C1#02AB835100C20300
(3.438243) van0 1F9#0000000000000000
(3.438531) van0 132#5487F3FFF726FF0F
(3.438820) van0 22A#0000A91500000000
(3.439109) van0 243#F500161BE6E60200
(3.439405) van0 266#0000012000003D01
(3.439684) van0 16#0100000000000000
(3.439971) van0 257#C64C1F0002000000
(3.450168) van0 2A8#010000000080F01B
(3.450399) van0 2E5#0000010B0000DD00
(3.450687) van0 272#10003E4211600708
(3.450975) van0 241#52A4B014295C0000
(3.451263) van0 39A#888D71B5FFFEFE0C
(3.451551) van0 3E8#0200000000000000
(3.451839) van0 119#0000000000000000
(3.452127) van0 23E#F4013AC0FAFCEF14
(3.452415) van0 1D5#210000000000A097
(3.465007) van0 129#3D2E02600020FF3F
(3.465281) van0 3F5#0036365850154001
(3.465570) van0 283#5354000040000000
(3.465857) van0 3A2#002073564581CA67
(3.466153) van0 228#010B0418602AF0CC
(3.466433) van0 360#0300000000000000
(3.466721) van0 2C1#04A57B000000408E
(3.467009) van0 266#0000012000003D01
(3.478540) van0 16#0100000000000000
(3.478817) van0 118#440A851C00800000
(3.479106) van0 132#4E87F3FFF726FF0F
(3.479393) van0 2E5#0000010B0000DD00
(3.479681) van0 421#0000000004000000
(3.479970) van0 2E8#010000000080F05B
(3.480257) van0 118#450B851C00800000
(3.480545) van0 1F8#1A00000000000000
(3.491751) van0 257#C84E1F0002000000
(3.492037) van0 20C#0010360AFC003000
(3.492325) van0 27D#0000000000000000
(3.492616) van0 29D#0000000000000000
(3.492901) van0 2BD#0000000000000000
(3.493189) van0 2E5#0000010B0000DD00
(3.500740) van0 1D8#210000000000C0BA
(3.501027) van0 4E2#0400000000000000
(3.501319) van0 23E#F4013AC0FAFCFF24
(3.501603) van0 38A#0100000000000000
(3.501891) van0 285#035B924879000000
(3.502179) van0 24A#0300000000000000
(3.502467) van0 2E1#FD1FC75AABCD0A00
(3.502755) van0 1D5#2100000000002017
(3.513854) van0 77A#0100185D605D305D
(3.514119) van0 113#0197010000000000
(3.514407) van0 318#14021B150B141B9B
(3.514695) van0 422#7000100000000000
(3.514983) van0 458#0202008000000000
(3.515271) van0 2C1#0100001428006400
(3.515559) van0 266#0000012000003D01
(3.515847) van0 16#0100000000000000
(3.526283) van0 118#480E851C00800000
(3.526537) van0 2C3#0000000101004040
(3.526825) van0 339#59F1FE0080038003
(3.527124) van0 287#62606061B5020000
(3.527401) van0 1D8#210000000000201A
(3.527689) van0 1D5#2100000000008077
(3.527978) van0 288#014B0418A02A00BC
(3.528265) van0 129#F12502600020FF3F
(3.539997) van0 545#920066B0ABC9AA10
(3.540255) van0 340#0200000000000000
(3.540543) van0 1D5#210000000000A097
(3.540831) van0 129#2B2602600020FF3F
(3.541119) van0 439#000020000000E102
(3.541409) van0 201#B20B00011660F301
(3.541695) van0 266#0000012000003D01
(3.541983) van0 119#0000000000000000
(3.553197) van0 1D8#210000000000605A
(3.553443) van0 253#6499ABC8992D0100
(3.553731) van0 1FA#1AC0010000000000
(3.554028) van0 1D5#210000000000C0B7
(3.554307) van0 129#3C2702600020FF3F
(3.554605) van0 2E1#02000000FF000200
(3.554884) van0 428#2000101000000000
(3.555171) van0 283#5354000040000000
(3.566054) van0 3A2#000073524501CA67
(3.566341) van0 228#010B0418402A00BC
(3.566630) van0 405#113345374542344B
(3.566925) van0 360#0400000000000000
(3.567205) van0 201#CB00001900633000
(3.567493) van0 132#4D87F2FFF526FF0F
(3.567781) van0 266#0000012000003D01
(3.568069) van0 2C1#04A57B000000408E
(3.579768) van0 266#0000012000003D01
(3.579999) van0 16#0100000000000000
(3.580287) van0 118#3E04851C00800000
(3.580575) van0 132#5287F2FFF526FF0F
(3.580863) van0 2E5#0000010B0000DD00
(3.581151) van0 421#0000000004000000
(3.581439) van0 757#4641414540313F40
(3.581727) van0 303#140500E13EDDA100
(3.582015) van0 37A#0200000004000000
(3.594511) van0 1FB#01FEFFB76D0B0000
(3.594793) van0 395#01111B431B0D087D
(3.595082) van0 108#130A000000000000
(3.595369) van0 2B6#0007000000000000
(3.595660) van0 128#0000000000000000
(3.595946) van0 1D5#2100000000004037
(3.596233) van0 1D5#2100000000006057
(3.596521) van0 129#F02C02600020FF3F
(3.607197) van0 229#4105000000000000
(3.607467) van0 249#8A07000000000000
(3.607753) van0 3FE#514491030E000000
(3.608041) van0 204#0100000000000010
(3.608329) van0 264#2D000000A0000000
(3.608617) van0 2E1#FD1FC75AABCA0A00
(3.608905) van0 7D5#44654F4F5D3E2452
(3.609193) van0 7D5#4643424A41324041
(3.619632) van0 7FF#0105544102041600
(3.619909) van0 132#5887F2FFF226FF0F
(3.620208) van0 266#0000012000003D01
(3.620485) van0 318#14021B150B141D9D
(3.620773) van0 2E5#0000010B0000DD00
(3.621062) van0 118#4208851C00800000
(3.621349) van0 339#5DF1FE0080038003
(3.621637) van0 39A#888F71B5FFFEFE0C
(3.633683) van0 287#62606061B5020000
(3.633961) van0 1D8#210000000000605A
(3.634251) van0 316#0A015A32FC000900
(3.634537) van0 316#0B001C4701000000
(3.634825) van0 316#0D000000D28B24D4
(3.635114) van0 316#1100000000000000
(3.635402) van0 316#121648B47A6641FD
(3.635689) van0 201#B20B00011660F301
(3.647405) van0 132#5487F2FFF726FF0F
(3.647679) van0 266#0000012000003D01
(3.647968) van0 16#0100000000000000
(3.648255) van0 118#450B851C00800000
(3.648545) van0 257#C0461F0002000000
(3.648831) van0 2A8#010000000080103B
(3.649119) van0 2E5#0000010B0000DD00
(3.649407) van0 266#0000012000003D01
(3.660511) van0 118#460C851C00800000
(3.660746) van0 2E5#0000010B0000DD00
(3.661033) van0 1A5#B302000000000000
(3.661321) van0 195#0000080028000000
(3.661609) van0 27A#CC0F000000000000
(3.661897) van0 396#0132323F3724137D
(3.662185) van0 186#930B000000010000
(3.662473) van0 2D1#FF01000000000000
(3.672524) van0 393#1000362211600708
(3.672807) van0 1D8#210000000000E0DA
(3.673095) van0 6E8#0100000000000000
(3.673383) van0 3C2#0055555500005A05
(3.673671) van0 2E1#03DE99021B1F5F01
(3.673959) van0 1D5#2100000000004037
(3.674247) van0 129#CD2302600120FF3F
(3.674536) van0 3A3#12C0000008000000
(3.685968) van0 75D#014C094B00000000
(3.686211) van0 3A1#884CE2C50058F269
(3.686499) van0 21D#0400040000000000
(3.686798) van0 545#031964321900D0E5
(3.687075) van0 25D#472805CC40A102C0
(3.687363) van0 27D#0000000000000000
(3.687652) van0 448#2000101000000000
(3.687939) van0 372#04007BFF48D97BFF
(3.699511) van0 118#3A00851C00800000
(3.699747) van0 2E5#0000010B0000DD00
(3.700035) van0 7D5#2B00B0FD00000000
(3.700323) van0 7D5#320E020000000000
(3.700614) van0 272#0500C30000000000
(3.700899) van0 1D8#210000000000403A
(3.701187) van0 3B3#0800040000000000
(3.701485) van0 1D8#210000000000605A
(3.712883) van0 212#B9044B8D00001E74
(3.713161) van0 252#DE20A37E0000A10F
(3.713452) van0 292#795DE5175F0A0300
(3.713737) van0 2D2#215E6E9DFE08E828
(3.714025) van0 2F2#1202000000000000
(3.714314) van0 1D5#210000000000C0B7
(3.714601) van0 129#3C2702600020FF3F
(3.714889) van0 2C2#555BA90680C11200
(3.726083) van0 3C2#2955000000000000
(3.726303) van0 3F9#0100000000000000
(3.726591) van0 129#EB2802600020FF3F
(3.726879) van0 2E1#10210430D0500000
(3.727168) van0 423#0000100000000000
(3.727457) van0 247#770DFF0000000000
(3.727743) van0 227#000000002F000080
(3.728031) van0 2C1#02AB835100C20300
(3.728319) van0 1F9#0000000000000000
(3.740748) van0 132#3E87F2FFF726FF0F
(3.740991) van0 22A#0000A91500000000
(3.741279) van0 243#F5001519E6E60200
(3.741568) van0 266#0000012000003D01
(3.741855) van0 2E5#0000010B0000DD00
(3.742143) van0 16#0100000000000000
(3.742431) van0 241#52A4B014295C0000
(3.742719) van0 39A#888F71B5FFFEFE00
(3.753426) van0 3E8#0500000000000000
(3.753663) van0 119#0000000000000000
(3.753951) van0 1D8#210000000000E0DA
(3.754241) van0 333#04100B0600000000
(3.754527) van0 334#3F3FFFC80002F06E
(3.754815) van0 1FA#1AC0010000000000
(3.755103) van0 1D5#2100000000006057
(3.755395) van0 129#F02C02600020FF3F
(3.765854) van0 3F5#0036365850154001
(3.766119) van0 283#5454000040000000
(3.766407) van0 3A2#00C07259F50ACA67
(3.766705) van0 228#010B0418602A20FC
(3.766983) van0 360#0600000000000000
(3.767271) van0 201#CB00001900633000
(3.767559) van0 2C1#04A57B000000408E
(3.767847) van0 266#0000012000003D01
(3.779397) van0 16#0100000000000000
(3.779655) van0 118#4208851C00800000
(3.779951) van0 132#4087F2FFF426FF0F
(3.780232) van0 2E5#0000010B0000DD00
(3.780519) van0 372#0501E6FF0ED3E7FF
(3.780807) van0 421#0000000004000000
(3.781095) van0 2E8#010000000080208B
(3.781383) van0 128#0000000000000000
(3.791911) van0 1D8#210000000000605A
(3.792195) van0 268#2B014401BC000000
(3.792484) van0 2E1#C412000003030000
(3.792771) van0 1D5#210000000000C0B7
(3.793059) van0 129#FF2F01600020FF3F
(3.793347) van0 3E3#0500000000000000
(3.793635) van0 3E2#050040A16F0F0000
(3.793923) van0 76A#00A3CAA802000000
(3.804777) van0 129#1A2001600020FF3F
(3.805033) van0 229#F907000000000000
(3.805321) van0 78A#0100060000000800
(3.805612) van0 204#0100000000000010
(3.805897) van0 207#0200000000000000
(3.806185) van0 264#2E000000A0000000
(3.806473) van0 54F#0000000000000000
(3.806761) van0 2F9#0CD9DFFCF305FF00
(3.817883) van0 7FF#0331096961220012
(3.818116) van0 318#14021C150B140182
(3.818413) van0 458#0202008000000000
(3.818691) van0 16#0100000000000000
(3.818979) van0 118#460C851C00800000
(3.819267) van0 2C1#0100001428006400
(3.819555) van0 2E5#0000010B0000DD00
(3.819843) van0 287#62606061B5020000
(3.830919) van0 339#5DF1FE0080038003
(3.831207) van0 1D8#210000000000E0DA
(3.831495) van0 1D5#2100000000004037
(3.831783) van0 288#014B0418A02A30EC
(3.832071) van0 129#602302600020FF3F
(3.832359) van0 545#92006B50ACD30A20
(3.832647) van0 281#0000FF1F00000000
(3.832936) van0 340#0500000000000000
(3.844455) van0 2E1#396D000000926B03
(3.844671) van0 1D5#2100000000006057
(3.844959) van0 129#4B2402600120FF3F
(3.845247) van0 439#000020000000E102
(3.845536) van0 201#BA0B00011660F301
(3.845823) van0 266#0000012000003D01
(3.846111) van0 16#0100000000000000
(3.846399) van0 319#1100000000000000
(3.846687) van0 282#74F8E1072054F324
(3.859283) van0 2C1#0300640D00EC0200
(3.859553) van0 132#3E87EFFFEF26FF0F
(3.859844) van0 266#0000012000003D01
(3.860129) van0 2F1#080200B004480128
(3.860417) van0 16#0100000000000000
(3.860706) van0 2E5#0000010B0000DD00
(3.860993) van0 118#3B01851C00800000
(3.861281) van0 2E5#0000010B0000DD00
(3.872403) van0 257#BB411F0002000000
(3.872679) van0 221#610505000000E06E
(3.872969) van0 3C0#0600000000000000
(3.873255) van0 39A#888F73B5FFFEFE0C
(3.873543) van0 2D1#FF01000000000000
(3.873832) van0 1D8#210000000000605A
(3.874119) van0 1D8#210000000000807A
(3.874407) van0 1D5#210000000000E0D7
(3.885940) van0 129#EB2802600020FF3F
(3.886215) van0 3A3#12C0000008000000
(3.886503) van0 75D#024A03A05A000000
(3.886801) van0 3A1#884CE2C5005C128D
(3.887079) van0 21D#0400040000000000
(3.887368) van0 545#0319643219001025
(3.887655) van0 3E2#050040A16F0F0000
(3.887943) van0 359#0000000000000000
(3.899311) van0 2C1#78E71D12913F0000
(3.899585) van0 132#4087F0FFEF26FF0F
(3.899873) van0 266#0000012000003D01
(3.900161) van0 7D5#2B00B0FD00000000
(3.900450) van0 16#0100000000000000
(3.900738) van0 2E5#0000010B0000DD00
(3.901025) van0 118#3E04851C00800000
(3.901316) van0 398#0000000000000000
(3.912340) van0 2E1#FD1FC50AABC90A00
(3.912579) van0 1D8#210000000000E0DA
(3.912870) van0 212#B9044B8D00001E74
(3.913155) van0 252#DE20A37E0000A10F
(3.913443) van0 292#795DE5175F0A0300
(3.913731) van0 2D2#215E6E9DFE08E828
(3.914020) van0 2F2#1202000000000000
(3.914307) van0 2C2#555BA90680C11200
(3.925553) van0 3C2#2955000000000000
(3.925827) van0 1D5#2100000000006057
(3.926116) van0 3F9#0300000000000000
(3.926403) van0 129#F02C02600020FF3F
(3.926691) van0 247#780DFF0000000000
(3.926979) van0 227#000000002F000080
(3.927267) van0 201#C90000FF07FF3000
(3.927555) van0 2C1#02AB835100C20300
(3.939254) van0 1F9#0000000000000000
(3.939529) van0 132#3B87F0FFF026FF0F
(3.939817) van0 22A#0000A91500000000
(3.940105) van0 243#F5001519E6E60200
(3.940393) van0 266#0000012000003D01
(3.940683) van0 2E5#0000010B0000DD00
(3.940969) van0 16#0100000000000000
(3.941257) van0 241#52A4B014295C0000
(3.951340) van0 3E8#0100000000000000
(3.951625) van0 119#0000000000000000
(3.951923) van0 1D8#210000000000605A
(3.952201) van0 313#0264640100008061
(3.952489) van0 1FA#1AC0010000000000
(3.952778) van0 1D5#210000000000C0B7
(3.953065) van0 129#CC2F02600020FF3F
(3.953353) van0 1D5#210000000000E0D7
(3.964111) van0 129#842002600120FF3F
(3.964385) van0 3F5#0036365850154001
(3.964677) van0 283#5454000040000000
(3.964961) van0 3A2#004073521D0ACA67
(3.965259) van0 228#010B0418402A40FC
(3.965538) van0 360#0000000000000000
(3.965825) van0 201#CB00001900633000
(3.966113) van0 2C1#04A57B000000408E
(3.977654) van0 266#0000012000003D01
(3.977921) van0 16#0100000000000000
(3.978209) van0 118#460C851C00800000
(3.978497) van0 132#3B87F0FFF026FF0F
(3.978785) van0 2E5#0000010B0000DD00
(3.979084) van0 381#28FFBFFDFDBF2400
(3.979361) van0 421#0000000004000000
(3.979649) van0 2E5#0000010B0000DD00
(3.990683) van0 37A#0000000000000000
(3.990916) van0 395#01111B431A0D087D
(3.991203) van0 108#150E000000FFFF00
(3.991491) van0 39A#889173B7FFFEFE0C
(3.991779) van0 1FB#01FEFFB76D0B0000
(3.992067) van0 1D8#210000000000E0DA
(3.992355) van0 268#2B014401BC000000
(3.992643) van0 2D3#3D012300D0DE7135
(4.004140) van0 4E2#031A000000000800
(4.004427) van0 1D5#2100000000006057
(4.004706) van0 77A#004018002C130000
(4.004993) van0 129#E62402600020FF3F
(4.005281) van0 2E3#010000D0C0020000
(4.005570) van0 207#0200000000000000
(4.005857) van0 229#A509000000000000
(4.006145) van0 3A2#4744000000000000
(4.017254) van0 113#0197010000000000
(4.017471) van0 7FF#0266F6799C5118A2
(4.017761) van0 318#14021C150B140586
(4.018047) van0 458#0202008000000000
(4.018336) van0 422#7000100000000000
(4.018623) van0 2F9#0CD9DFFCF305FF00
(4.018911) van0 2C1#0100001428006400
(4.019199) van0 118#3B01851C00800000
(4.019487) van0 257#C3491F0002000000
(4.031997) van0 2E5#0000010B0000DD00
(4.032265) van0 2C3#5503A80680C11200
(4.032553) van0 287#62606061B5020000
(4.032841) van0 2B3#0822240B0C070B19
(4.033129) van0 2E1#10210430D0500000
(4.033417) van0 339#5DF1FE0080038003
(4.033705) van0 1FB#F0FFFFFFFFFFFFFF
(4.033993) van0 1D8#210000000000807A
(4.045711) van0 340#0700000000000000
(4.045983) van0 1D5#210000000000E0D7
(4.046271) van0 129#EB2802600020FF3F
(4.046559) van0 439#000020000000E102
(4.046847) van0 2E1#396D000000926B03
(4.047136) van0 201#B20B00011660F301
(4.047423) van0 428#2000101000000000
(4.047711) van0 282#7CF8E1071C54F324
(4.059254) van0 2C1#0300640D00EE0200
(4.059519) van0 132#3D87F0FFF026FF0F
(4.059807) van0 266#0000012000003D01
(4.060095) van0 2F1#0AB1010000002828
(4.060383) van0 16#0100000000000000
(4.060671) van0 118#3E04851C00800000
(4.060959) van0 266#0000012000003D01
(4.061247) van0 379#01006880A1C1E900
(4.072368) van0 118#3F05851C00800000
(4.072648) van0 257#C54B1F0002000000
(4.072934) van0 2E5#0000010B0000DD00
(4.073221) van0 381#29FFBFFDFDBF2400
(4.073509) van0 3C0#0000000000000000
(4.073807) van0 757#320E000000000000
(4.074085) van0 2D1#FF01000000000000
(4.074373) van0 1D5#2100000000006057
(4.085568) van0 129#C32C01600020FF3F
(4.085833) van0 3A3#12C0000008000000
(4.086121) van0 75D#0300000000000000
(4.086409) van0 3A1#884CE3C5005832AA
(4.086697) van0 31E#0000000000000000
(4.086985) van0 545#0319643219005065
(4.087273) van0 21D#0400040000000000
(4.087561) van0 2C1#78E71D12913F0000
(4.099031) van0 132#3887EFFFEF26FF0F
(4.099263) van0 266#0000012000003D01
(4.099551) van0 372#0900000000000000
(4.099839) van0 16#0100000000000000
(4.100127) van0 2E1#C412000003030000
(4.100415) van0 118#4208851C00800000
(4.100706) van0 2E5#0000010B0000DD00
(4.100991) van0 39A#889173B7FFFEFE0C
(4.112140) van0 34A#0007010000000020
(4.112417) van0 398#0000000000000000
(4.112706) van0 2D2#215E6E9DFE08E828
(4.112993) van0 1D8#210000000000605A
(4.113281) van0 212#B9044B8D00001E74
(4.113570) van0 252#DE20A37E0000A10F
(4.113857) van0 292#795DE5175F0A0300
(4.114145) van0 2C2#555BA90680C11200
(4.125775) van0 3C2#2955000000000000
(4.126049) van0 1D5#210000000000E0D7
(4.126336) van0 3F9#0100000000000000
(4.126623) van0 129#292002600020FF3F
(4.126911) van0 788#01000000FFA10800
(4.127199) van0 227#000000002F000080
(4.127487) van0 201#C90000FF07FF3000
(4.127775) van0 281#0000FF1F00000000
(4.139662) van0 2C1#02AB835100C20300
(4.139871) van0 1F9#0000000000000000
(4.140159) van0 132#3787EFFFEE26FF0F
(4.140447) van0 20A#F615098218010000
(4.140736) van0 22A#0000A91500000000
(4.141023) van0 243#F5001417E6E60200
(4.141311) van0 266#0000012000003D01
(4.141599) van0 241#52A4B014295C0000
(4.141887) van0 3E8#0300000000000000
(4.153883) van0 119#0000000000000000
(4.154149) van0 1D8#210000000000E0DA
(4.154437) van0 473#3000000000000000
(4.154736) van0 1FA#1AC0010000000000
(4.155013) van0 1D5#2100000000004037
(4.155301) van0 129#09230260FF1FFF3F
(4.155589) van0 1D5#2100000000006057
(4.155887) van0 129#E62402600020FF3F
(4.166654) van0 3F5#0036365850154001
(4.166884) van0 283#5454000040000000
(4.167171) van0 3A2#0020F3507501CA67
(4.167460) van0 228#010B0418402A601C
(4.167747) van0 2E1#02000000FF000200
(4.168035) van0 360#0200000000000000
(4.168323) van0 2C1#04A57B000000408E
(4.168611) van0 266#0000012000003D01
(4.168901) van0 132#3387F0FFEE26FF0F
(4.181924) van0 16#0100000000000000
(4.182207) van0 118#3A00851C00800000
(4.182495) van0 2E5#0000010B0000DD00
(4.182783) van0 372#0AAA8297B67AAD07
(4.183071) van0 421#0000000004000000
(4.183359) van0 37A#0200000004000000
(4.183647) van0 395#01111B431B0E087D
(4.183936) van0 108#0900000000000000
(4.194940) van0 1FB#01FEFFB76D0B0000
(4.195168) van0 2B6#0007000000000000
(4.195456) van0 128#0000000000000000
(4.195743) van0 268#2B014401BC000000
(4.196031) van0 7DD#FF00000000000000
(4.196319) van0 1D5#210000000000C0B7
(4.196607) van0 229#8C0B000000000000
(4.196895) van0 249#D50D000000000000
(4.197183) van0 2C4#024000D200000000
(4.207719) van0 204#0100000000000010
(4.208005) van0 54F#0000000000000000
(4.208293) van0 224#4408000013011008
(4.208581) van0 2B4#82E5245F01000000
(4.208869) van0 282#893534346402400F
(4.209157) van0 2E1#FD1FC0FAAAC00A00
(4.209445) van0 2C1#0100001428006400
(4.209734) van0 132#3987F0FFEE26FF0F
(4.221174) van0 266#0000012000003D01
(4.221447) van0 2E5#0000010B0000DD00
(4.221736) van0 118#3E04851C00800000
(4.222023) van0 221#6055551554515138
(4.222311) van0 383#7300460000000000
(4.222600) van0 3C8#0200000000000000
(4.222890) van0 1D5#2100000000004037
(4.223175) van0 288#014B0418802A700C
(4.234883) van0 129#902B02600020FF3F
(4.235139) van0 2E1#10210430D0500000
(4.235427) van0 545#86016690ABC68AC2
(4.235716) van0 281#0000FF1F00000000
(4.236011) van0 2C1#02AB835100C20300
(4.236291) van0 1F9#0000000000000000
(4.236579) van0 201#B20B00011660F301
(4.236867) van0 381#20945F46B7B2A146
(4.247826) van0 132#3A87EFFFF026FF0F
(4.248109) van0 266#0000012000003D01
(4.248387) van0 16#0100000000000000
(4.248675) van0 118#4107851C00800000
(4.248963) van0 257#BE441F0002000000
(4.249252) van0 2A8#010000000080709B
(4.249539) van0 2E5#0000010B0000DD00
(4.249827) van0 2E5#0000010B0000DD00
(4.260940) van0 1A5#B302000000000000
(4.261225) van0 27A#CC0F000000000000
(4.261514) van0 2F1#0C5930D906953739
(4.261801) van0 372#0BD69A16D5B216FC
(4.262089) van0 396#0132323F3725137D
(4.262378) van0 186#8901000000010000
(4.262665) van0 7A8#D61E00F000000000
(4.262953) van0 6E8#0100000000000000
(4.273711) van0 3C2#0055555500005A05
(4.273985) van0 1D5#210000000000C0B7
(4.274273) van0 129#612F02600120FF3F
(4.274561) van0 102#22330000B624A109
(4.274849) van0 103#2233000090F42032
(4.275138) van0 139#0000000000000000
(4.275428) van0 2C1#04A57B000000408E
(4.275713) van0 2E1#03DE99021B1F5F01
(4.286826) van0 21D#0400040000000000
(4.287111) van0 25D#472805CC40A102C0
(4.287400) van0 27D#0000000000000000
(4.287687) van0 29D#0000000000000000
(4.287975) van0 448#2000101000000000
(4.288264) van0 545#03196432190090A5
(4.288551) van0 243#5C83D760933E0A01
(4.288839) van0 2E5#0000010B0000DD00
(4.300026) van0 118#460C851C00800000
(4.300287) van0 272#0500C30000000000
(4.300575) van0 4E3#0059010000000800
(4.300863) van0 2B3#00838C5F894B0000
(4.301151) van0 1D8#210000000000C0BA
(4.301439) van0 3BB#490F000000000000
(4.301727) van0 2F3#0BEB632400000000
(4.302015) van0 1D8#210000000000E0DA
(4.312968) van0 409#0000000000000000
(4.313247) van0 1D5#2100000000004037
(4.313536) van0 129#602302600020FF3F
(4.313823) van0 3C3#5555550000550000
(4.314111) van0 3A2#4B44000000000000
(4.314399) van0 405#113345374542344B
(4.314687) van0 113#0197010000000000
(4.314975) van0 423#0000100000000000
(4.325397) van0 362#0000000000000000
(4.325631) van0 788#5C05228404000000
(4.325919) van0 247#770DFF0000000000
(4.326207) van0 201#C90000FF07FF3000
(4.326495) van0 132#3C87F2FFF526FF0F
(4.326792) van0 227#000000002F000080
(4.327073) van0 266#0000012000003D01
(4.327359) van0 1F9#0000000000000000
(4.338083) van0 132#3E87F2FFF526FF0F
(4.338303) van0 243#F5001415E6E60200
(4.338591) van0 266#0000012000003D01
(4.338879) van0 118#3A00851C00800000
(4.339168) van0 2E5#0000010B0000DD00
(4.339456) van0 381#21B2808067303030
(4.339743) van0 6C8#A011005701000000
(4.340031) van0 273#89E13000360F3011
(4.340319) van0 3E8#0500000000000000
(4.353511) van0 119#0000000000000000
(4.353795) van0 1D8#210000000000605A
(4.354084) van0 1FA#1AC0010000000000
(4.354371) van0 2E1#396D000000926B03
(4.354659) van0 1D5#210000000000C0B7
(4.354947) van0 129#0F2701600020FF3F
(4.355235) van0 1D5#210000000000E0D7
(4.355523) van0 129#EB2802600020FF3F
(4.366289) van0 3F5#0036365850154001
(4.366527) van0 283#5454000040000000
(4.366815) van0 3A2#0080725D4581CA67
(4.367103) van0 228#010B0418602A805C
(4.367401) van0 360#0400000000000000
(4.367679) van0 201#CB00001900633000
(4.367968) van0 2C1#04A57B000000408E
(4.368255) van0 266#0000012000003D01
(4.380168) van0 16#0100000000000000
(4.380423) van0 118#3E04851C00800000
(4.380711) van0 132#3A87F3FFF726FF0F
(4.381000) van0 2E5#0000010B0000DD00
(4.381287) van0 320#0000000000000000
(4.381578) van0 372#00128056D11E3C44
(4.381864) van0 16#0100000000000000
(4.382151) van0 1D6#0000080028000000
(4.392426) van0 279#CC1F000000000000
(4.392675) van0 20C#0010360AFC003000
(4.392963) van0 29D#0000000000000000
(4.393252) van0 2B3#015C5C70575C5C7B
(4.393539) van0 2E1#03DE99021B1F5F01
(4.393827) van0 2E5#0000010B0000DD00
(4.394116) van0 37A#0100000004000000
(4.394403) van0 129#F02C02600020FF3F
(4.405197) van0 2E1#C412000003030000
(4.405479) van0 2E3#A00000D3C0020000
(4.405768) van0 249#510F000000000000
(4.406055) van0 204#0100000000000010
(4.406343) van0 264#2B000000A0000000
(4.406635) van0 54F#0000000000000000
(4.406919) van0 78A#010003000000E45D
(4.407217) van0 2C1#0100001428006400
(4.418140) van0 132#3E87F3FFF526FF0F
(4.418368) van0 266#0000012000003D01
(4.418655) van0 16#0100000000000000
(4.418943) van0 118#4208851C00800000
(4.419231) van0 2E5#0000010B0000DD00
(4.419519) van0 38B#FFFF2F19D4000000
(4.419807) van0 221#6055551554519178
(4.420095) van0 1D8#210000000000605A
(4.420383) van0 1D5#210000000000C0B7
(4.432810) van0 129#CC2F02600020FF3F
(4.433055) van0 288#014B0418A02A904C
(4.433343) van0 545#92006600ACCACA82
(4.433631) van0 281#0000FF1F00000000
(4.433921) van0 2C1#02AB835100C20300
(4.434207) van0 1F9#0000000000000000
(4.434495) van0 340#0300000000000000
(4.434783) van0 1D5#210000000000E0D7
(4.445740) van0 129#1A2001600020FF3F
(4.446015) van0 439#000020000000E102
(4.446303) van0 201#B20B00011660F301
(4.446591) van0 132#3887F3FFF526FF0F
(4.446879) van0 266#0000012000003D01
(4.447168) van0 2A8#01000000008090BB
(4.447456) van0 282#74F8E1072054F324
(4.447743) van0 266#0000012000003D01
(4.459455) van0 16#0100000000000000
(4.459717) van0 118#460C851C00800000
(4.460005) van0 132#3B87F2FFF426FF0F
(4.460293) van0 2C1#0300640D00EC0200
(4.460581) van0 2E5#0000010B0000DD00
(4.460869) van0 1A5#B302000000000000
(4.461157) van0 2E5#0000010B0000DD00
(4.461450) van0 379#056096724A000102
(4.472140) van0 221#610505000000A02E
(4.472417) van0 3C0#0400000200000000
(4.472706) van0 39A#889173B9FFFEFE0C
(4.472993) van0 2D1#FF01000000000000
(4.473281) van0 1D8#210000000000E0DA
(4.473570) van0 393#1000362211600708
(4.473857) van0 6E8#0100000000000000
(4.474145) van0 1D5#2100000000006057
(4.485340) van0 129#E62402600020FF3F
(4.485578) van0 3A3#12C0000008000000
(4.485865) van0 33D#1A290ABE874AFA98
(4.486153) van0 3A1#884CE1C5005872E8
(4.486444) van0 37D#4C4BD0074CD00700
(4.486729) van0 41D#0000000000000000
(4.487017) van0 43D#00000000FF000000
(4.487315) van0 2C1#78E71D12913F0000
(4.497940) van0 132#3A87F3FFF426FF0F
(4.498215) van0 266#0000012000003D01
(4.498503) van0 7D5#2B00B0FD00000000
(4.498791) van0 16#0100000000000000
(4.499079) van0 2E5#0000010B0000DD00
(4.499369) van0 118#3A00851C00800000
(4.499655) van0 7D5#320E020000000000
(4.499943) van0 398#0000000000000000
(4.510968) van0 2D2#215E6E9DFE08E828
(4.511209) van0 1D8#210000000000605A
(4.511497) van0 212#B9044B8D00001E74
(4.511785) van0 252#DE20A37E0000A10F
(4.512073) van0 292#795DE5175F0A0300
(4.512361) van0 2F2#1202000000000000
(4.512650) van0 409#0000000000000000
(4.512937) van0 2C2#555BA90680C11200
(4.523577) van0 2E1#FD1FC70AABC40A00
(4.523847) van0 1D5#210000000000E0D7
(4.524146) van0 3C2#2955000000000000
(4.524423) van0 129#EB2802600020FF3F
(4.524711) van0 3F9#0100000000000000
(4.525000) van0 423#0000100000000000
(4.525287) van0 788#D21E003000000000
(4.525575) van0 281#0000FF1F00000000
(4.536940) van0 2C1#02AB835100C20300
(4.537217) van0 1F9#0000000000000000
(4.537506) van0 132#3B87F3FFF526FF0F
(4.537793) van0 22A#0000A91500000000
(4.538084) van0 243#F5001315E6E60200
(4.538370) van0 266#0000012000003D01
(4.538657) van0 2E5#0000010B0000DD00
(4.538945) van0 257#BD431F0002000000
(4.549711) van0 2E5#0000010B0000DD00
(4.549983) van0 272#10003A6211600708
(4.550271) van0 241#52A4B014295C0000
(4.550559) van0 3E8#0100000000000000
(4.550847) van0 119#0000000000000000
(4.551136) van0 1D8#210000000000E0DA
(4.551423) van0 293#020C55006504BF20
(4.551711) van0 1D5#2100000000006057
(4.562826) van0 129#F02C02600020FF3F
(4.563109) van0 3F5#0036365850154001
(4.563398) van0 283#5454000040000000
(4.563685) van0 3A2#00407358F50ACA67
(4.563973) van0 228#010B0418402AA05C
(4.564262) van0 405#1246333135383039
(4.564549) van0 360#0600000000000000
(4.564837) van0 102#22330000B624A109
(4.576368) van0 103#2233000090F42032
(4.576645) van0 139#0000000000000000
(4.576942) van0 302#12A6A46B47CECBCE
(4.577221) van0 556#40400043FF000000
(4.577509) van0 356#0000000000000000
(4.577798) van0 357#0000000000000000
(4.578085) van0 35A#0000000000000000
(4.578373) van0 201#CC00001900633000
(4.589226) van0 132#4187F1FFF326FF0F
(4.589511) van0 1F8#1A00000000000000
(4.589800) van0 263#0200000278253200
(4.590087) van0 266#0000012000003D01
(4.590378) van0 16#0100000000000000
(4.590664) van0 118#4309851C00800000
(4.590961) van0 20C#0010360AFC003000
(4.591239) van0 335#10017CA74894FF00
(4.601911) van0 335#1100000000000000
(4.602183) van0 213#8095000000000000
(4.602471) van0 335#1303000000000000
(4.602759) van0 82#0000008000800080
(4.603047) van0 335#14050000107E8667
(4.603336) van0 4E2#031A000000000800
(4.603623) van0 207#0200000000000000
(4.603911) van0 54F#0000000000000000
(4.615111) van0 1D5#21000000000000F7
(4.615359) van0 3C5#0000000000000000
(4.615647) van0 3C3#5555550000550000
(4.615936) van0 3E5#0000000000000000
(4.616223) van0 78A#0100050000006106
(4.616511) van0 3A2#4744000000000000
(4.616799) van0 7AA#04000FC000260000
(4.617087) van0 788#5C05228404000000
(4.629083) van0 287#62606061B5020000
(4.629349) van0 132#3D87F1FFF326FF0F
(4.629637) van0 227#000000002F000080
(4.629935) van0 247#780DFF0000000000
(4.630213) van0 266#0000012000003D01
(4.630501) van0 118#470D851C00800000
(4.630789) van0 257#C1471F0002000000
(4.631077) van0 6C8#0100000000000000
(4.642797) van0 1FB#F0FFFFFFFFFFFFFF
(4.643079) van0 1D8#21000000000000FA
(4.643369) van0 2E1#10210430D0500000
(4.643655) van0 340#0500000000000000
(4.643946) van0 1D5#2100000000006057
(4.644232) van0 129#E62402600020FF3F
(4.644519) van0 439#000020000000E102
(4.644807) van0 1FA#1AC0010000000000
(4.656083) van0 1D5#2100000000008077
(4.656361) van0 129#F12502600020FF3F
(4.656650) van0 263#00C139F426BCD500
(4.656937) van0 428#2000101000000000
(4.657225) van0 282#74F8E1072054F324
(4.657514) van0 2C1#0300640D00EC0200
(4.657801) van0 132#3887F0FFF226FF0F
(4.658089) van0 360#0700000000000000
(4.669626) van0 201#CB00001900633000
(4.669897) van0 132#3487F1FFF226FF0F
(4.670185) van0 266#0000012000003D01
(4.670473) van0 379#03207E80A171F100
(4.670761) van0 16#0100000000000000
(4.671060) van0 2E5#0000010B0000DD00
(4.671337) van0 118#3B01851C00800000
(4.671625) van0 39A#FFFEFEFEFE000001
(4.682740) van0 211#A713710F00010000
(4.682988) van0 122#00001212D2000000
(4.683267) van0 1D8#210000000000807A
(4.683555) van0 3DA#0000000000000000
(4.683843) van0 1D5#210000000000E0D7
(4.684131) van0 129#462802600120FF3F
(4.684420) van0 3A3#14C0000008000000
(4.684707) van0 1D5#21000000000000F7
(4.695854) van0 129#BE2902600020FF3F
(4.696105) van0 3E3#0500000000000000
(4.696393) van0 3E2#050040A16F0F0000
(4.696683) van0 359#0800DD67C4637909
(4.696972) van0 2C1#78E71D12913F0000
(4.697267) van0 132#3C87F1FFF326FF0F
(4.697546) van0 266#0000012000003D01
(4.697833) van0 282#893534341001400F
(4.708968) van0 201#80071E0040240300
(4.709255) van0 266#0000012000003D01
(4.709536) van0 16#0100000000000000
(4.709823) van0 118#3F05851C00800000
(4.710111) van0 132#3C87F1FFF226FF0F
(4.710399) van0 257#C54B1F0002000000
(4.710687) van0 2E5#0000010B0000DD00
(4.710975) van0 1D8#21000000000000FA
(4.722083) van0 263#01BD3CF527BAD504
(4.722314) van0 393#0500C30000000000
(4.722601) van0 261#C01A1102FA7F98FF
(4.722889) van0 2C2#555BA90680C11200
(4.723178) van0 3C2#2955000000000000
(4.723466) van0 1D5#2100000000006057
(4.723753) van0 3F9#0300000000000000
(4.724041) van0 1D5#2100000000008077
(4.724329) van0 129#E22D02600020FF3F
(4.737518) van0 288#014B0418A02AC07C
(4.737759) van0 545#880061C0ABCA2A92
(4.738047) van0 281#0000FF1F00000000
(4.738336) van0 2C1#02AB835100C20300
(4.738623) van0 1F9#0000000000000000
(4.738911) van0 132#3887F1FFF226FF0F
(4.739199) van0 201#B20B00011660F301
(4.739487) van0 132#3987F1FFF426FF0F
(4.750455) van0 266#0000012000003D01
(4.750719) van0 16#0100000000000000
(4.751007) van0 2A8#010000000080C0EB
(4.751297) van0 118#4309851C00800000
(4.751583) van0 2E5#0000010B0000DD00
(4.751871) van0 257#C74D1F0002000000
(4.752159) van0 396#0132323F3725137D
(4.752447) van0 7A8#01000000FFA10800
(4.763568) van0 242#55D5000000000000
(4.763855) van0 398#0000000000000000
(4.764134) van0 2E1#396D000000926B03
(4.764421) van0 1D8#210000000000807A
(4.764709) van0 1D5#210000000000E0D7
(4.764998) van0 129#292002600020FF3F
(4.765285) van0 3C2#0055555500005A05
(4.765573) van0 1D5#21000000000000F7
(4.776683) van0 129#3E2102600020FF3F
(4.776927) van0 102#22330000B624A109
(4.777215) van0 103#2233000090F42032
(4.777503) van0 139#0000000000000000
(4.777791) van0 266#0000012000003D01
(4.778079) van0 16#0100000000000000
(4.778368) van0 2C1#04A57B000000408E
(4.778655) van0 1F8#1A00000000000000
(4.788854) van0 201#CC00001900633000
(4.789129) van0 243#5C83D760933E0A01
(4.789417) van0 257#C94F1F0002000000
(4.789705) van0 263#0200000278253200
(4.789993) van0 20C#0010360AFC003000
(4.790282) van0 29D#0000000000000000
(4.790569) van0 2BD#0000000000000000
(4.790857) van0 1D8#21000000000000FA
(4.801797) van0 207#0200000000000000
(4.802055) van0 4E2#E501A6C101030000
(4.802343) van0 38A#0300000000000000
(4.802635) van0 1D5#2100000000006057
(4.802919) van0 78A#010007000000AE04
(4.803207) van0 129#E62402600020FF3F
(4.803495) van0 2E3#9492618615060000
(4.803783) van0 3C3#5555550000550000
(4.815254) van0 3A2#4544000000000000
(4.815519) van0 559#0000000000000000
(4.815807) van0 528#5E431A9D00000000
(4.816095) van0 3ED#0000000000000000
(4.816383) van0 405#100000000035594A
(4.816671) van0 422#7000100000000000
(4.816959) van0 113#0197010000000000
(4.817247) van0 201#C90000FF07FF3000
(4.827254) van0 266#0000012000003D01
(4.827521) van0 132#3887F0FFF026FF0F
(4.827809) van0 118#3B01851C00800000
(4.828101) van0 227#000000002F000080
(4.828385) van0 247#770DFF0000000000
(4.828684) van0 2E5#0000010B0000DD00
(4.828961) van0 2E1#FD1FC80AABCA0A00
(4.829249) van0 2B3#06B150E72FB6CD1C
(4.840968) van0 6C8#0100000000000000
(4.841227) van0 1FB#F0FFFFFFFFFFFFFF
(4.841511) van0 1D8#210000000000807A
(4.841800) van0 340#0700000000000000
(4.842087) van0 1D5#210000000000E0D7
(4.842375) van0 129#EB2802600020FF3F
(4.842664) van0 439#000020000000E102
(4.842961) van0 1FA#1AC0010000000000
(4.854254) van0 1D5#21000000000000F7
(4.854505) van0 129#BE2902600020FF3F
(4.854801) van0 428#2000101000000000
(4.855085) van0 263#00C139F426BCD500
(4.855369) van0 319#122E911E5848BC56
(4.855657) van0 282#74F8E1071C54F324
(4.855946) van0 2C1#0300640D00EC0200
(4.856233) van0 360#0100000000000000
(4.867803) van0 201#CB00001900633000
(4.868041) van0 132#3B87EFFFEC26FF0F
(4.868329) van0 266#0000012000003D01
(4.868617) van0 16#0100000000000000
(4.868905) van0 2E5#0000010B0000DD00
(4.869193) van0 118#3F05851C00800000
(4.869492) van0 379#01006880A1C1E900
(4.869769) van0 118#4006851C00800000
(4.881254) van0 132#3C87EDFFEA26FF0F
(4.881471) van0 2E5#0000010B0000DD00
(4.881759) van0 421#0000000004000000
(4.882047) van0 2E8#010000000080D03B
(4.882336) van0 123#00001212D2000000
(4.882623) van0 2E1#02000000FF000200
(4.882911) van0 211#A915710F00010000
(4.883199) van0 1FB#01FEFFB76D0B0000
(4.883487) van0 128#0000000000000000
(4.895911) van0 268#2B014401BC000000
(4.896159) van0 77D#1100000000000000
(4.896447) van0 7E8#0AF9080007001F00
(4.896742) van0 1D5#2100000000008077
(4.897023) van0 129#E22D02600020FF3F
(4.897311) van0 3E3#0500000000000000
(4.897599) van0 249#E504000000000000
(4.897887) van0 2C4#49D9FD2EA4846589
(4.907997) van0 204#0100000000000010
(4.908255) van0 78A#0100080000005000
(4.908545) van0 264#2B000000A0000000
(4.908831) van0 224#4408000013011008
(4.909119) van0 2B4#81E1247201000000
(4.909407) van0 282#893534342008400F
(4.909695) van0 2E5#0000010B0000DD00
(4.909983) van0 221#6055551554513118
(4.921283) van0 383#7300480000000000
(4.921503) van0 3C8#0300000000000000
(4.921791) van0 39A#FFFEFEFEFE000001
(4.922079) van0 1D8#210000000000807A
(4.922368) van0 393#0500C30000000000
(4.922663) van0 261#C31A1102FA7FD0FF
(4.922951) van0 1D5#21000000000000F7
(4.923231) van0 129#3E2102600020FF3F
(4.923519) van0 288#014B0418802AE07C
(4.936724) van0 545#900166B0ABC96ACF
(4.936995) van0 281#0000FF1F00000000
(4.937284) van0 266#0000012000003D01
(4.937571) van0 16#0100000000000000
(4.937859) van0 132#3587EEFFED26FF0F
(4.938147) van0 118#460C851C00800000
(4.938435) van0 266#0000012000003D01
(4.938723) van0 201#B20B00011660F301
(4.949654) van0 16#0100000000000000
(4.949921) van0 118#470D851C00800000
(4.950209) van0 132#3387EEFFEF26FF0F
(4.950497) van0 257#C1471F0002000000
(4.950785) van0 2A8#010000000080E00B
(4.951073) van0 2E1#10210430D0500000
(4.951361) van0 1A5#B302000000000000
(4.951649) van0 195#0000080028000000
(4.962083) van0 2F1#0112CB004B003200
(4.962342) van0 396#0132323F3724137D
(4.962627) van0 186#8D08000000FFFF00
(4.962916) van0 7A8#50FD118404000000
(4.963203) van0 398#0000000000000000
(4.963491) van0 1D8#21000000000000FA
(4.963779) van0 6E8#AC11005601000000
(4.964067) van0 3C2#0055555500005A05
(4.975711) van0 1D5#2100000000008077
(4.975936) van0 129#F12502600020FF3F
(4.976223) van0 102#22330000B624A109
(4.976511) van0 103#2233000090F42032
(4.976799) van0 139#0000000000000000
(4.977087) van0 2C1#04A57B000000408E
(4.977375) van0 266#0000012000003D01
(4.977663) van0 201#CC00001900633000
(4.977951) van0 243#5C83D760933E0A01
(4.990540) van0 266#0000012000003D01
(4.990817) van0 126#B706000000000000
(4.991106) van0 1D6#0000080028000000
(4.991393) van0 118#3B01851C00800000
(4.991681) van0 257#C3491F0002000000
(4.991970) van0 20C#00F0350AFC003000
(4.992257) van0 207#0200000000000000
(4.992545) van0 1D8#210000000000807A
(5.003484) van0 2D3#3D012300D0DE7135
(5.003749) van0 4E2#016D060000000800
(5.004037) van0 38A#0100000000000000
(5.004325) van0 1D5#210000000000E0D7
(5.004613) van0 77A#004018002C130000
(5.004901) van0 129#EB2802600020FF3F
(5.005189) van0 409#0000000000000000
(5.005477) van0 1D5#21000000000000F7
(5.016609) van0 129#BE2902600020FF3F
(5.016841) van0 3C3#5555550000550000
(5.017119) van0 3A2#4D44000000000000
(5.017407) van0 113#0197010000000000
(5.017695) van0 7FF#0331096961220012
(5.017983) van0 318#14021D150B14199B
(5.018271) van0 3C9#0400000000000000
(5.018559) van0 788#01000000FFA10800
(5.029797) van0 201#C90000FF07FF3000
(5.030079) van0 132#3587EEFFEC26FF0F
(5.030368) van0 266#0000012000003D01
(5.030655) van0 16#0100000000000000
(5.030943) van0 227#000000002F000080
(5.031231) van0 118#3F05851C00800000
(5.031519) van0 247#770DFF0000000000
(5.031807) van0 1FB#F0FFFFFFFFFFFFFF
(5.042921) van0 1D8#21000000000000FA
(5.043146) van0 340#0100000000000000
(5.043440) van0 1D5#2100000000006057
(5.043728) van0 129#F02C02600020FF3F
(5.044009) van0 439#000020000000E102
(5.044297) van0 201#BA0B00011660F301
(5.044585) van0 132#3387EEFFEC26FF0F
(5.044883) van0 428#2000101000000000
(5.056455) van0 263#00C139F426BCD500
(5.056741) van0 282#7CF8E1072054F324
(5.057030) van0 2C1#0300640D00EC0200
(5.057317) van0 132#3287EEFFEE26FF0F
(5.057605) van0 266#0000012000003D01
(5.057912) van0 16#0100000000000000
(5.058181) van0 118#4208851C00800000
(5.058469) van0 360#0300000000000000
(5.069571) van0 201#CB00001900633000
(5.069823) van0 266#0000012000003D01
(5.070111) van0 16#0100000000000000
(5.070399) van0 257#C74D1F0002000000
(5.070687) van0 2E1#396D000000926B03
(5.070975) van0 2E5#0000010B0000DD00
(5.071263) van0 379#0720CB6EBD010102
(5.071551) van0 211#AB17710F00010000
(5.082511) van0 122#00001212D2000000
(5.082783) van0 1D8#210000000000807A
(5.083071) van0 3DA#0000000000000000
(5.083359) van0 1D5#210000000000E0D7
(5.083647) van0 129#292002600020FF3F
(5.083936) van0 2E1#02000000FF000200
(5.084223) van0 3A3#12C0000008000000
(5.084511) van0 1D5#21000000000000F7
(5.095797) van0 129#3E2102600020FF3F
(5.096031) van0 3E3#0500000000000000
(5.096319) van0 3E2#050040A16F0F0000
(5.096607) van0 359#0C00000000000000
(5.096895) van0 266#0000012000003D01
(5.097183) van0 2C1#78E71D12913F0000
(5.097471) van0 16#0100000000000000
(5.097759) van0 282#893534341001400F
(5.108311) van0 201#80A71D0040240300
(5.108581) van0 266#0000012000003D01
(5.108869) van0 118#470D851C00800000
(5.109157) van0 132#3887EEFFEE26FF0F
(5.109445) van0 252#DE20A37E0000A10F
(5.109734) van0 257#C94F1F0002000000
(5.110021) van0 292#795DE5175F0A0300
(5.110309) van0 1D8#21000000000000FA
(5.122034) van0 393#0500C30000000000
(5.122311) van0 261#C11A1102FA7FDAFF
(5.122600) van0 2C2#555BA90680C11200
(5.122887) van0 3C2#2955000000000000
(5.123175) van0 1D5#2100000000006057
(5.123465) van0 263#01BD3CF527BAD504
(5.123751) van0 129#E62402600020FF3F
(5.124039) van0 1D5#2100000000008077
(5.136083) van0 129#F12502600020FF3F
(5.136351) van0 288#014B0418602A007C
(5.136639) van0 2E1#FD1FC02AABC00A00
(5.136927) van0 545#8E016690ABC3AAE7
(5.137215) van0 281#0000FF1F00000000
(5.137508) van0 2C1#02AB835100C20300
(5.137791) van0 1F9#0000000000000000
(5.138079) van0 201#BA0B00011660F301
(5.149026) van0 132#3B87EEFFEE26FF0F
(5.149311) van0 266#0000012000003D01
(5.149599) van0 16#0100000000000000
(5.149887) van0 2A8#010000000080002B
(5.150175) van0 118#3B01851C00800000
(5.150463) van0 257#BB411F0002000000
(5.150751) van0 2E5#0000010B0000DD00
(5.151039) van0 2F1#0312C7004B000200
(5.162140) van0 27A#CC0F000000000000
(5.162378) van0 396#0132323F3724137D
(5.162665) van0 7A8#D61E00F000000000
(5.162953) van0 186#920A000000010000
(5.163241) van0 39A#FFFEFEFEFE000001
(5.163529) van0 398#0000000000000000
(5.163817) van0 1D8#210000000000807A
(5.164105) van0 3C2#0055555500005A05
(5.175256) van0 1D5#21000000000000F7
(5.175519) van0 129#BE2902600020FF3F
(5.175807) van0 102#22330000B624A109
(5.176095) van0 103#2233000090F42032
(5.176383) van0 139#0000000000000000
(5.176671) van0 2C1#04A57B000000408E
(5.176959) van0 266#0000012000003D01
(5.177247) van0 27D#0000000000000000
(5.188381) van0 545#031964321900B0C5
(5.188645) van0 201#CC00001900633000
(5.188934) van0 132#3587EEFFEA26FF0F
(5.189221) van0 243#5C83D760933E0A01
(5.189509) van0 126#B706000000000000
(5.189798) van0 1D6#0000080028000000
(5.190085) van0 118#3F05851C00800000
(5.190373) van0 2B3#DAAEDCC88B80F605
(5.201405) van0 207#0200000000000000
(5.201667) van0 3B3#0800040000000000
(5.201955) van0 1D8#21000000000000FA
(5.202243) van0 4E2#031A000000000800
(5.202531) van0 38A#0000000000000000
(5.202820) van0 2E1#03DE99021B1F5F01
(5.203107) van0 1D5#2100000000006057
(5.203395) van0 1D5#2100000000008077
(5.214768) van0 129#E22D02600020FF3F
(5.215047) van0 3C3#5555550000550000
(5.215336) van0 3A2#4544000000000000
(5.215623) van0 113#0197010000000000
(5.215911) van0 7FF#0266F6799C5118A2
(5.216200) van0 318#14021D150B141D9F
(5.216487) van0 458#0202008000000000
(5.216775) van0 788#5805128404000000
(5.227887) van0 266#0000012000003D01
(5.228163) van0 201#C90000FF07FF3000
(5.228454) van0 16#0100000000000000
(5.228739) van0 118#4309851C00800000
(5.229027) van0 132#3687EEFFEC26FF0F
(5.229316) van0 227#000000002F000080
(5.229603) van0 247#770DFF0000000000
(5.229891) van0 2E5#0000010B0000DD00
(5.240997) van0 381#20945F46B7B2A145
(5.241255) van0 6C8#0100000000000000
(5.241551) van0 1FB#F0FFFFFFFFFFFFFF
(5.241832) van0 1D8#210000000000807A
(5.242119) van0 340#0300000000000000
(5.242407) van0 1D5#210000000000E0D7
(5.242695) van0 129#292002600020FF3F
(5.242983) van0 1FA#1AC0010000000000
(5.254283) van0 1D5#21000000000000F7
(5.254537) van0 129#3E2102600020FF3F
(5.254825) van0 2E1#10210430D0500000
(5.255114) van0 428#2000101000000000
(5.255401) van0 282#7CF8E1072054F324
(5.255697) van0 263#00C139F426BCD500
(5.255979) van0 132#3787F0FFF026FF0F
(5.256265) van0 228#010B0418602A10EC
(5.267826) van0 360#0500000000000000
(5.268073) van0 201#CB00001900633000
(5.268361) van0 132#3387F1FFF026FF0F
(5.268650) van0 266#0000012000003D01
(5.268937) van0 16#0100000000000000
(5.269225) van0 118#470D851C00800000
(5.269514) van0 257#C1471F0002000000
(5.269801) van0 421#0000000004000000
(5.280856) van0 2E8#010000000080107B
(5.281121) van0 123#00001212D2000000
(5.281409) van0 39A#FFFEFEFEFE000001
(5.281697) van0 211#AD19710F00010000
(5.281985) van0 122#00001212D2000000
(5.282273) van0 1D8#21000000000000FA
(5.282561) van0 3DA#0000000000000000
(5.282849) van0 1FB#01FEFFB76D0B0000
(5.294226) van0 43D#00000000FF000000
(5.294463) van0 268#2B014401BC000000
(5.294751) van0 77D#1100000000000000
(5.295039) van0 1D5#2100000000008077
(5.295327) van0 129#F12502600020FF3F
(5.295615) van0 3E3#0500000000000000
(5.295903) van0 3E2#050040A16F0F0000
(5.296191) van0 204#0100000000000010
(5.306484) van0 249#F008000000000000
(5.306753) van0 2C4#4D80800100000000
(5.307041) van0 224#4408000013011008
(5.307329) van0 2B4#82E5245101000000
(5.307617) van0 330#124D383930363133
(5.307906) van0 54F#0000000000000000
(5.308193) van0 282#893534342002400F
(5.308481) van0 2E5#0000010B0000DD00
(5.319511) van0 221#605555155451B198
(5.319747) van0 383#7300480000000000
(5.320035) van0 3C8#0100000000000000
(5.320323) van0 1D8#210000000000807A
(5.320611) van0 393#0500C30000000000
(5.320899) van0 261#C61A1102FA7F2200
(5.321187) van0 2E1#C412000003030000
(5.321475) van0 1D5#21000000000000F7
(5.333228) van0 129#BE2902600020FF3F
(5.333509) van0 288#014B0418A02A20DC
(5.333798) van0 545#880061C0ACDAEA63
(5.334085) van0 281#0000FF1F00000000
(5.334383) van0 2C1#02AB835100C20300
(5.334662) van0 1F9#0000000000000000
(5.334949) van0 132#3787F0FFF026FF0F
(5.335240) van0 201#B20B00011660F301
(5.346168) van0 132#3987F0FFEF26FF0F
(5.346409) van0 266#0000012000003D01
(5.346700) van0 16#0100000000000000
(5.346985) van0 2A8#010000000080204B
(5.347283) van0 118#3F05851C00800000
(5.347561) van0 257#C54B1F0002000000
(5.347851) van0 2E5#0000010B0000DD00
(5.348137) van0 282#74F8E1072054F324
(5.359291) van0 2C1#0300640D00EC0200
(5.359551) van0 132#3887F0FFEF26FF0F
(5.359839) van0 16#0100000000000000
(5.360127) van0 2E5#0000010B0000DD00
(5.360415) van0 118#4006851C00800000
(5.360714) van0 195#0000080028000000
(5.360991) van0 27A#CC10000000000000
(5.361279) van0 757#320E000000000000
(5.371632) van0 39A#8A9173B7FFFEFE0C
(5.371875) van0 2D1#FF01000000000000
(5.372173) van0 1D8#210000000000201A
(5.372454) van0 393#1000382211600708
(5.372739) van0 6E8#AC11005601000000
(5.373027) van0 312#10447E7233D22A19
(5.373316) van0 300#1100000000000000
(5.373603) van0 129#0E2E01600020FF3F
(5.385171) van0 3A3#16C0000008000000
(5.385411) van0 41D#0000000000000000
(5.385699) van0 3A1#844CE2C5005C0279
(5.385987) van0 21D#0400040000000000
(5.386275) van0 43D#00000000FF000000
(5.386563) van0 545#031964321900F005
(5.386852) van0 25D#472805CC40A102C0
(5.387139) van0 266#0000012000003D01
(5.397862) van0 16#0100000000000000
(5.398143) van0 132#3687F1FFF226FF0F
(5.398431) van0 118#440A851C00800000
(5.398719) van0 2C1#78E71D12913F0000
(5.399007) van0 2E5#0000010B0000DD00
(5.399295) van0 7D5#2B00B0FD00000000
(5.399583) van0 7D5#320E020000000000
(5.399871) van0 2D2#215E6E9DFE08E828
(5.410968) van0 2F2#1202000000000000
(5.411209) van0 343#00905CEEA9250000
(5.411497) van0 772#A102A00ADC0A5A0A
(5.411785) van0 1D8#210000000000A09A
(5.412073) van0 1D5#21000000000000F7
(5.412361) van0 409#0000000000000000
(5.412650) van0 129#3E2102600020FF3F
(5.412937) van0 261#C81A1102FA7F7900
(5.423568) van0 23E#F4013AC0FAFCFF24
(5.423847) van0 2C2#0000000101004040
(5.424136) van0 3C2#2955000000000000
(5.424423) van0 1D5#2100000000002017
(5.424711) van0 3F9#0200000000000000
(5.425000) van0 129#772202600020FF3F
(5.425287) van0 287#62606061B5020000
(5.425575) van0 281#0000FF1F00000000
(5.437114) van0 2C1#02AB835100C20300
(5.437383) van0 1F9#0000000000000000
(5.437671) van0 132#3887F2FFF226FF0F
(5.437963) van0 22A#0000A91500000000
(5.438247) van0 243#F5001111E2E20200
(5.438536) van0 266#0000012000003D01
(5.438833) van0 16#0100000000000000
(5.439111) van0 2A8#010000000080305B
(5.449283) van0 2E5#0000010B0000DD00
(5.449514) van0 272#10003A6211600708
(5.449801) van0 241#52A4B014295C0000
(5.450089) van0 3E8#0400000000000000
(5.450378) van0 119#0000000000000000
(5.450665) van0 1D8#210000000000201A
(5.450953) van0 313#026464010000B091
(5.451241) van0 7A8#D61E00F000000000
(5.451529) van0 23E#F4013AC0FAFC0F34
(5.464111) van0 1D5#210000000000A097
(5.464383) van0 129#2B2602600020FF3F
(5.464671) van0 3F5#0036365850154001
(5.464959) van0 283#5454000040000000
(5.465247) van0 3A2#00C07257150BCA67
(5.465536) van0 228#010B0418602A300C
(5.465823) van0 102#22330000B624A109
(5.466111) van0 103#2233000090F42032
(5.477654) van0 2E1#396D000000926B03
(5.477919) van0 2C1#04A57B000000408E
(5.478207) van0 266#0000012000003D01
(5.478495) van0 16#0100000000000000
(5.478783) van0 118#3C02851C00800000
(5.479071) van0 132#2B87F1FFF326FF0F
(5.479359) van0 243#5C83D760933E0A01
(5.479649) van0 266#0000012000003D01
(5.490768) van0 16#0100000000000000
(5.491055) van0 118#3D03851C00800000
(5.491334) van0 1F8#1A00000000000000
(5.491621) van0 257#BC421F0002000000
(5.491909) van0 20C#0010360AFC003000
(5.492198) van0 27D#0000000000000000
(5.492485) van0 1D8#210000000000C0BA
(5.492778) van0 23E#F4013AC0FAFC1F44
(5.503455) van0 285#035B924879000000
(5.503717) van0 38A#0000000000000000
(5.504005) van0 4E2#0020010000000800
(5.504293) van0 24A#0300000000000000
(5.504581) van0 1D5#2100000000002017
(5.504869) van0 77A#0100185D605D305D
(5.505157) van0 129#612A02600020FF3F
(5.505445) van0 3A2#4944000000000000
(5.516568) van0 113#0197010000000000
(5.516799) van0 7FF#0266F6799C5118A2
(5.517087) van0 318#14021D150B140385
(5.517375) van0 458#0202008000000000
(5.517671) van0 422#7000100000000000
(5.517951) van0 2F9#0CD9DFFCF305FF00
(5.518239) van0 2C1#0100001428006400
(5.518527) van0 257#BE441F0002000000
(5.518815) van0 227#000000002F000080
(5.531311) van0 247#780DFF0000000000
(5.531593) van0 2E5#0000010B0000DD00
(5.531882) van0 2C3#0000000101004040
(5.532169) van0 339#5DF1FE0080038003
(5.532459) van0 1D8#210000000000201A
(5.532746) van0 1D5#2100000000008077
(5.533036) van0 1D8#210000000000403A
(5.533321) van0 23E#F4013AC0FAFC2F54
(5.545026) van0 340#0600000000000000
(5.545311) van0 1D5#210000000000A097
(5.545599) van0 2E1#FD1FC50AABC50A00
(5.545887) van0 129#3D2E02600020FF3F
(5.546175) van0 439#000020000000E102
(5.546463) van0 266#0000012000003D01
(5.546751) van0 428#2000101000000000
(5.547039) van0 282#7CF8E1071C54F324
(5.558568) van0 266#0000012000003D01
(5.558847) van0 16#0100000000000000
(5.559136) van0 118#440A851C00800000
(5.559423) van0 132#3A87F1FFEF26FF0F
(5.559711) van0 2C1#0300640D00EE0200
(5.559999) van0 2E5#0000010B0000DD00
(5.560287) van0 360#0000000000000000
(5.560583) van0 201#CB00001900633000
(5.571683) van0 266#0000012000003D01
(5.571914) van0 16#0100000000000000
(5.572201) van0 257#C0461F0002000000
(5.572489) van0 2E5#0000010B0000DD00
(5.572778) van0 379#00006880A1C1E900
(5.573065) van0 656#0A015A32FC000500
(5.573353) van0 221#610505000000008E
(5.573641) van0 23E#F4013AC0FAFC3F64
(5.573929) van0 1D5#2100000000002017
(5.586511) van0 129#772202600020FF3F
(5.586783) van0 3A3#12C0000008000000
(5.587071) van0 41D#0000000000000000
(5.587359) van0 3A1#844CE2C500582295
(5.587647) van0 21D#0400040000000000
(5.587939) van0 43D#00000000FF000000
(5.588223) van0 2C1#78E71D12913F0000
(5.588511) van0 132#3787F1FFF326FF0F
(5.599197) van0 266#0000012000003D01
(5.599456) van0 381#2407DCC2C5E62400
(5.599743) van0 16#0100000000000000
(5.600031) van0 2E5#0000010B0000DD00
(5.600319) van0 118#480E851C00800000
(5.600607) van0 207#0200000000000000
(5.600895) van0 257#C2481F0002000000
(5.601183) van0 292#795DE5175F0A0300
(5.612311) van0 2D2#215E6E9DFE08E828
(5.612581) van0 2E5#0000010B0000DD00
(5.612869) van0 343#0090500EA9280000
(5.613157) van0 34A#0300000000000000
(5.613455) van0 398#0000000000000000
(5.613734) van0 1D8#210000000000201A
(5.614021) van0 261#C11A1102FA7F03FF
(5.614309) van0 2C2#0000000101004040
(5.625946) van0 1D5#210000000000A097
(5.626179) van0 287#62606061B5020000
(5.626467) van0 3C2#2955000000000000
(5.626755) van0 129#2B2602600020FF3F
(5.627043) van0 3F9#0000000000000000
(5.627331) van0 423#0000100000000000
(5.627620) van0 2E2#0000249384070000
(5.627907) van0 2C1#02AB835100C20300
(5.639826) van0 1F9#0000000000000000
(5.640063) van0 132#3C87F1FFF526FF0F
(5.640351) van0 243#F500100FE2E20200
(5.640639) van0 266#0000012000003D01
(5.640927) van0 118#3C02851C00800000
(5.641217) van0 2E5#0000010B0000DD00
(5.641503) van0 748#241D060000000000
(5.641791) van0 241#5278AC141E5B0000
(5.652597) van0 1D8#210000000000A09A
(5.652851) van0 119#0000000000000000
(5.653129) van0 3E8#0000000000000000
(5.653417) van0 473#3000000000000000
(5.653705) van0 1FA#1AC0010000000000
(5.653993) van0 1D5#21000000000000F7
(5.654282) van0 129#BE2902600020FF3F
(5.654569) van0 6D4#14060000ED43344A
(5.665368) van0 6D4#15010D32D4AFBB67
(5.665635) van0 1D5#2100000000002017
(5.665923) van0 344#00000000000060A7
(5.666211) van0 385#0000000000000000
(5.666499) van0 283#5454000040000000
(5.666787) van0 3F5#0036365850154001
(5.667075) van0 3A2#0020F3524501CA67
(5.667363) van0 2C1#04A57B000000408E
(5.678911) van0 266#0000012000003D01
(5.679171) van0 16#0100000000000000
(5.679460) van0 118#4006851C00800000
(5.679757) van0 132#3D87F1FFF226FF0F
(5.680035) van0 2E5#0000010B0000DD00
(5.680323) van0 421#0000000004000000
(5.680611) van0 2E8#01000000008050BB
(5.680899) van0 381#15FFBFFDFDBF2400
(5.691953) van0 395#01111B431A0E087D
(5.692191) van0 108#180F000000000000
(5.692479) van0 1D8#210000000000201A
(5.692771) van0 1FB#01FEFFB76D0B0000
(5.693055) van0 128#0000000000000000
(5.693345) van0 399#0000000000000000
(5.693631) van0 43D#00000000FF000000
(5.693919) van0 1D5#210000000000A097
(5.704540) van0 7AA#0505000C6009D404
(5.704803) van0 129#3D2E02600020FF3F
(5.705091) van0 2E3#030000D3C0020000
(5.705379) van0 229#F60A000000000000
(5.705667) van0 2C4#350001041000FF00
(5.705955) van0 204#0100000000000010
(5.706243) van0 249#470C000000000000
(5.706531) van0 458#0202008000000000
(5.717140) van0 422#7000100000000000
(5.717413) van0 2F9#0CD9DFFCF305FF00
(5.717701) van0 266#0000012000003D01
(5.717989) van0 2C1#0100001428006400
(5.718277) van0 16#0100000000000000
(5.718566) van0 132#3687F0FFF326FF0F
(5.718853) van0 118#440A851C00800000
(5.719141) van0 2E1#C412000003030000
(5.730083) van0 339#5DF1FE0080038003
(5.730314) van0 39A#8C8F75B9FFFEFE0C
(5.730608) van0 1D8#210000000000A09A
(5.730889) van0 1D5#21000000000000F7
(5.731178) van0 129#3E2102600020FF3F
(5.731467) van0 288#014B0418A02A601C
(5.731753) van0 545#92006260ACD16A85
(5.732041) van0 340#0000000000000000
(5.732329) van0 1D5#2100000000002017
(5.745511) van0 129#772202600020FF3F
(5.745759) van0 439#000020000000E102
(5.746047) van0 266#0000012000003D01
(5.746336) van0 16#0100000000000000
(5.746625) van0 132#3A87F1FFEF26FF0F
(5.746911) van0 118#470D851C00800000
(5.747199) van0 282#7CF8E1072054F324
(5.747497) van0 266#0000012000003D01
(5.758626) van0 132#3987F1FFF426FF0F
(5.758913) van0 16#0100000000000000
(5.759201) van0 2C1#0300640D00EC0200
(5.759489) van0 118#480E851C00800000
(5.759777) van0 2E5#0000010B0000DD00
(5.760065) van0 1A5#B302000000000000
(5.760353) van0 266#0000012000003D01
(5.760641) van0 16#0100000000000000
(5.770711) van0 2E5#0000010B0000DD00
(5.770981) van0 257#BA401F0002000000
(5.771269) van0 379#02006880A1C1E900
(5.771557) van0 757#320E000000000000
(5.771845) van0 221#61050500000040CE
(5.772134) van0 1D8#210000000000201A
(5.772421) van0 211#B21E710F00010000
(5.772709) van0 122#00001212D2000000
(5.784083) van0 1D8#210000000000403A
(5.784351) van0 2E1#396D000000926B03
(5.784639) van0 3DA#0000000000000000
(5.784927) van0 23E#F4013AC0FAFC8FB4
(5.785215) van0 1D5#210000000000A097
(5.785503) van0 129#42260260FF1FFF3F
(5.785791) van0 3A3#12C0000008000000
(5.786079) van0 2C1#78E71D12913F0000
(5.797540) van0 132#3687F1FFF226FF0F
(5.797827) van0 266#0000012000003D01
(5.798116) van0 207#0200000000000000
